!Keysight Technologies N9923A: A.08.09
!Date: Wednesday, 01 August 2018 07:15:23
!Timezone: (GMT+08:00) Kuala Lumpur, Singapore
!Model: N9923A
!Serial: MY52412143
!GPS Latitude: 
!GPS Longitude: 
!GPS TimeStamp: 0001-01-01 00:00:00Z
!GPS Seconds Since Last Read: 0
!CHECKSUM:1716802671
!Correction: S11(ON U)S21()S12()S22()
!S2P File: Measurements:S11,S21,S12,S22:
# Hz S DB R 50
5000000	-0.0194068853252381	172.908592448359	0	0	0	0	0	0	
6000500.25012506	-0.0161133707982112	171.515372306535	0	0	0	0	0	0	
7001000.50025013	-0.0171772029543969	170.106455859599	0	0	0	0	0	0	
8001500.75037519	-0.0149868264502078	168.687408288297	0	0	0	0	0	0	
9002001.00050025	-0.0115492539943373	167.280508901927	0	0	0	0	0	0	
10002501.2506253	-0.0124898884025418	165.870251766808	0	0	0	0	0	0	
11003001.5007504	-0.0108082430900107	164.46176606244	0	0	0	0	0	0	
12003501.7508754	-0.0100193783957823	163.055748754167	0	0	0	0	0	0	
13004002.0010005	-0.0129669499281887	161.652365178419	0	0	0	0	0	0	
14004502.2511256	-0.0130336009204477	160.257848837654	0	0	0	0	0	0	
15005002.5012506	-0.0164456972531182	158.861162909684	0	0	0	0	0	0	
16005502.7513757	-0.0194358640786436	157.47028594598	0	0	0	0	0	0	
17006003.0015007	-0.0219507729262451	156.108540795241	0	0	0	0	0	0	
18006503.2516258	-0.0251374176237567	154.717197372625	0	0	0	0	0	0	
19007003.5017509	-0.0302980412576453	153.359549143709	0	0	0	0	0	0	
20007503.7518759	-0.0337576670920278	152.007045289319	0	0	0	0	0	0	
21008004.002001	-0.0360228687697218	150.656069657446	0	0	0	0	0	0	
22008504.2521261	-0.0393346027869295	149.30571105895	0	0	0	0	0	0	
23009004.5022511	-0.0444290635659239	147.960398477802	0	0	0	0	0	0	
24009504.7523762	-0.0437284382737754	146.623464151796	0	0	0	0	0	0	
25010005.0025012	-0.0448537589448627	145.299868038445	0	0	0	0	0	0	
26010505.2526263	-0.0493979630747346	143.984408837528	0	0	0	0	0	0	
27011005.5027514	-0.0535322728862747	142.640072372085	0	0	0	0	0	0	
28011505.7528764	-0.0499212382410477	141.351631805263	0	0	0	0	0	0	
29012006.0030015	-0.0497709549618419	140.0238534058	0	0	0	0	0	0	
30012506.2531265	-0.0525931460791234	138.718982681316	0	0	0	0	0	0	
31013006.5032516	-0.0527108351354224	137.436084042041	0	0	0	0	0	0	
32013506.7533767	-0.0539432501865318	136.153218765761	0	0	0	0	0	0	
33014007.0035017	-0.0484802382243393	134.859419297862	0	0	0	0	0	0	
34014507.2536268	-0.046993631242862	133.567337649942	0	0	0	0	0	0	
35015007.5037519	-0.046862310507682	132.284530200994	0	0	0	0	0	0	
36015507.7538769	-0.0479964720839426	131.022565723749	0	0	0	0	0	0	
37016008.004002	-0.0513866150007685	129.73657914158	0	0	0	0	0	0	
38016508.2541271	-0.0478523919283648	128.477386228287	0	0	0	0	0	0	
39017008.5042521	-0.0455571217993772	127.21849334187	0	0	0	0	0	0	
40017508.7543772	-0.0449580478521697	125.940362591723	0	0	0	0	0	0	
41018009.0045023	-0.0451192861448092	124.703926037424	0	0	0	0	0	0	
42018509.2546273	-0.0420808643737204	123.470283045611	0	0	0	0	0	0	
43019009.5047524	-0.0419965616782	122.222043541102	0	0	0	0	0	0	
44019509.7548774	-0.0387821897076344	121.031064757914	0	0	0	0	0	0	
45020010.0050025	-0.040989704533066	119.800120529315	0	0	0	0	0	0	
46020510.2551276	-0.037100192688458	118.608124034219	0	0	0	0	0	0	
47021010.5052526	-0.0377428644661253	117.401198063169	0	0	0	0	0	0	
48021510.7553777	-0.0391444855292305	116.217539474361	0	0	0	0	0	0	
49022011.0055028	-0.0409757782140533	115.061451383261	0	0	0	0	0	0	
50022511.2556278	-0.0424874859029485	113.871443917823	0	0	0	0	0	0	
51023011.5057529	-0.0440853902186358	112.714257531637	0	0	0	0	0	0	
52023511.755878	-0.0474081947859678	111.558178250717	0	0	0	0	0	0	
53024012.006003	-0.0482522562243708	110.400325645599	0	0	0	0	0	0	
54024512.2561281	-0.0532887145146033	109.248938221657	0	0	0	0	0	0	
55025012.5062532	-0.0534748524712831	108.135514858205	0	0	0	0	0	0	
56025512.7563782	-0.0577804394987686	106.976185065869	0	0	0	0	0	0	
57026013.0065033	-0.0584336767655434	105.848230058035	0	0	0	0	0	0	
58026513.2566284	-0.0598854327019875	104.748255732758	0	0	0	0	0	0	
59027013.5067534	-0.0588098940296801	103.63657148408	0	0	0	0	0	0	
60027513.7568785	-0.0573344202250321	102.520324360243	0	0	0	0	0	0	
61028014.0070036	-0.0545105609636908	101.436101214382	0	0	0	0	0	0	
62028514.2571286	-0.0562443649617522	100.358066485772	0	0	0	0	0	0	
63029014.5072537	-0.0501282044389902	99.2745673202601	0	0	0	0	0	0	
64029514.7573788	-0.049739095832092	98.1981883862636	0	0	0	0	0	0	
65030015.0075038	-0.046011649664869	97.1373733650558	0	0	0	0	0	0	
66030515.2576289	-0.0420093176220497	96.0723460813538	0	0	0	0	0	0	
67031015.507754	-0.0432295097552541	95.0225100616911	0	0	0	0	0	0	
68031515.757879	-0.0387280055902667	93.9849500280465	0	0	0	0	0	0	
69032016.0080041	-0.0395776702862413	92.9245063726711	0	0	0	0	0	0	
70032516.2581291	-0.04114484488554	91.894904591311	0	0	0	0	0	0	
71033016.5082542	-0.0398047497071981	90.8527444701577	0	0	0	0	0	0	
72033516.7583793	-0.0368944457777686	89.8377533890691	0	0	0	0	0	0	
73034017.0085043	-0.0367895535212349	88.7866092851913	0	0	0	0	0	0	
74034517.2586294	-0.0350091099508125	87.7980754302884	0	0	0	0	0	0	
75035017.5087545	-0.0368621627103486	86.7807680286977	0	0	0	0	0	0	
76035517.7588795	-0.0332813354183915	85.7690114944123	0	0	0	0	0	0	
77036018.0090046	-0.0331914296607981	84.7761023462127	0	0	0	0	0	0	
78036518.2591297	-0.0314806636706105	83.807426452263	0	0	0	0	0	0	
79037018.5092547	-0.0298708073270774	82.8119226064737	0	0	0	0	0	0	
80037518.7593798	-0.0293990716857043	81.8683449832038	0	0	0	0	0	0	
81038019.0095049	-0.0256078602687965	80.9037057531581	0	0	0	0	0	0	
82038519.2596299	-0.0231155732090824	79.9537189775576	0	0	0	0	0	0	
83039019.509755	-0.0264558141756122	79.0260964861014	0	0	0	0	0	0	
84039519.7598801	-0.0263848950294924	78.0795756168323	0	0	0	0	0	0	
85040020.0100051	-0.0260495403273564	77.1615967825543	0	0	0	0	0	0	
86040520.2601302	-0.02995054091621	76.2455082344799	0	0	0	0	0	0	
87041020.5102553	-0.0303037526761451	75.3198836313025	0	0	0	0	0	0	
88041520.7603803	-0.0344357081271154	74.3983401961902	0	0	0	0	0	0	
89042021.0105054	-0.0359705501574376	73.471088947231	0	0	0	0	0	0	
90042521.2606305	-0.0380251789112755	72.5700364284824	0	0	0	0	0	0	
91043021.5107555	-0.0394197671903383	71.6731731941854	0	0	0	0	0	0	
92043521.7608806	-0.0407113980155984	70.759833515793	0	0	0	0	0	0	
93044022.0110057	-0.0451761803396784	69.8576917916563	0	0	0	0	0	0	
94044522.2611307	-0.0481529296711973	68.9675578133771	0	0	0	0	0	0	
95045022.5112558	-0.0491064649787484	68.1013884975945	0	0	0	0	0	0	
96045522.7613809	-0.0497135441222098	67.2023998549086	0	0	0	0	0	0	
97046023.0115059	-0.0464923529749859	66.3287942929826	0	0	0	0	0	0	
98046523.261631	-0.0508004420101811	65.4621988673935	0	0	0	0	0	0	
99047023.511756	-0.0507513028692228	64.6003131720748	0	0	0	0	0	0	
100047523.761881	-0.0470211496826826	63.7463011459356	0	0	0	0	0	0	
101048024.012006	-0.0477082760134947	62.8973153348482	0	0	0	0	0	0	
102048524.262131	-0.0422456992762421	62.0689207147042	0	0	0	0	0	0	
103049024.512256	-0.0480696485281423	61.2221824466209	0	0	0	0	0	0	
104049524.762381	-0.0455689934858715	60.3992605707419	0	0	0	0	0	0	
105050025.012506	-0.0461346240797876	59.5454742494102	0	0	0	0	0	0	
106050525.262632	-0.0469690193880482	58.720842242717	0	0	0	0	0	0	
107051025.512757	-0.0460928385825881	57.9201944272636	0	0	0	0	0	0	
108051525.762882	-0.0460350760594609	57.0804121383276	0	0	0	0	0	0	
109052026.013007	-0.0458319025244631	56.2612182112309	0	0	0	0	0	0	
110052526.263132	-0.0486223829841852	55.4603275635702	0	0	0	0	0	0	
111053026.513257	-0.0490383322679964	54.660898273662	0	0	0	0	0	0	
112053526.763382	-0.0466662547287303	53.845057821205	0	0	0	0	0	0	
113054027.013507	-0.0445552869864643	53.0354107129696	0	0	0	0	0	0	
114054527.263632	-0.0446652587026934	52.2579683981327	0	0	0	0	0	0	
115055027.513757	-0.0434694222699687	51.4637324354708	0	0	0	0	0	0	
116055527.763882	-0.043222783610935	50.6804065481338	0	0	0	0	0	0	
117056028.014007	-0.0405066634509721	49.8921599139101	0	0	0	0	0	0	
118056528.264132	-0.0391894383764591	49.1263374687945	0	0	0	0	0	0	
119057028.514257	-0.0383375016218228	48.3469765541737	0	0	0	0	0	0	
120057528.764382	-0.0332760950122565	47.5772776123669	0	0	0	0	0	0	
121058029.014507	-0.0346898453767538	46.8023257851732	0	0	0	0	0	0	
122058529.264633	-0.0362834633172567	46.0561541456978	0	0	0	0	0	0	
123059029.514758	-0.0346200806696389	45.2798394819293	0	0	0	0	0	0	
124059529.764883	-0.0381383173716148	44.49861668532	0	0	0	0	0	0	
125060030.015008	-0.0367525547745803	43.7559410292068	0	0	0	0	0	0	
126060530.265133	-0.038416400659979	43.005041659022	0	0	0	0	0	0	
127061030.515258	-0.0424019823229718	42.2252568339657	0	0	0	0	0	0	
128061530.765383	-0.0474129644373274	41.4693585588754	0	0	0	0	0	0	
129062031.015508	-0.0500064248538799	40.6859561852136	0	0	0	0	0	0	
130062531.265633	-0.0498856195327901	39.9607084251289	0	0	0	0	0	0	
131063031.515758	-0.052944663794605	39.198500823828	0	0	0	0	0	0	
132063531.765883	-0.0522736525839406	38.4605358054957	0	0	0	0	0	0	
133064032.016008	-0.0546426759303909	37.7341104323441	0	0	0	0	0	0	
134064532.266133	-0.0553386823829426	36.9826373820343	0	0	0	0	0	0	
135065032.516258	-0.0583182617345996	36.2646875492518	0	0	0	0	0	0	
136065532.766383	-0.0573303002103509	35.5489541222746	0	0	0	0	0	0	
137066033.016508	-0.0590231217471536	34.8139510426492	0	0	0	0	0	0	
138066533.266634	-0.0578451189249123	34.1223447602508	0	0	0	0	0	0	
139067033.516759	-0.0589532182411096	33.3891787335891	0	0	0	0	0	0	
140067533.766884	-0.058505375019044	32.6838286412194	0	0	0	0	0	0	
141068034.017009	-0.0604865546292727	31.9609614894136	0	0	0	0	0	0	
142068534.267134	-0.0602268904922411	31.2593411159684	0	0	0	0	0	0	
143069034.517259	-0.0620570156409507	30.5484531197636	0	0	0	0	0	0	
144069534.767384	-0.0630657892250213	29.844088482499	0	0	0	0	0	0	
145070035.017509	-0.0657959320817331	29.142082747113	0	0	0	0	0	0	
146070535.267634	-0.0686116488259137	28.4231424081862	0	0	0	0	0	0	
147071035.517759	-0.0704324452998045	27.7372414967327	0	0	0	0	0	0	
148071535.767884	-0.0707625176817965	27.0291147760025	0	0	0	0	0	0	
149072036.018009	-0.0732768555275355	26.3208995476207	0	0	0	0	0	0	
150072536.268134	-0.0749116061940074	25.6389491401797	0	0	0	0	0	0	
151073036.518259	-0.0743206809777319	24.9101044586996	0	0	0	0	0	0	
152073536.768384	-0.074395785292527	24.1993614374156	0	0	0	0	0	0	
153074037.018509	-0.0761933022501398	23.4897014425321	0	0	0	0	0	0	
154074537.268634	-0.0800739144193091	22.7812605146814	0	0	0	0	0	0	
155075037.518759	-0.0809042761046585	22.0772321496525	0	0	0	0	0	0	
156075537.768884	-0.0813443902097759	21.3636668578207	0	0	0	0	0	0	
157076038.01901	-0.0842920170266295	20.6581263032253	0	0	0	0	0	0	
158076538.269135	-0.0874566349784028	19.9398036581107	0	0	0	0	0	0	
159077038.51926	-0.0906269390994467	19.2338195675263	0	0	0	0	0	0	
160077538.769385	-0.0948370954695442	18.4983314590277	0	0	0	0	0	0	
161078039.01951	-0.100345965243984	17.7792700185686	0	0	0	0	0	0	
162078539.269635	-0.10458905218249	17.0481957378616	0	0	0	0	0	0	
163079039.51976	-0.108103943042102	16.3292128026324	0	0	0	0	0	0	
164079539.769885	-0.11445382795108	15.60487535621	0	0	0	0	0	0	
165080040.02001	-0.119982285821427	14.888014229219	0	0	0	0	0	0	
166080540.270135	-0.123813715590027	14.1576433510043	0	0	0	0	0	0	
167081040.52026	-0.129001030391736	13.4290982679145	0	0	0	0	0	0	
168081540.770385	-0.1349553535764	12.6975219123878	0	0	0	0	0	0	
169082041.02051	-0.139310809469045	11.9734878679899	0	0	0	0	0	0	
170082541.270635	-0.144721664069648	11.2528303238517	0	0	0	0	0	0	
171083041.52076	-0.148892267525738	10.5276271828888	0	0	0	0	0	0	
172083541.770885	-0.15460445053967	9.81641379880543	0	0	0	0	0	0	
173084042.02101	-0.157871525207392	9.10024522878418	0	0	0	0	0	0	
174084542.271135	-0.165265682075814	8.39515203193412	0	0	0	0	0	0	
175085042.52126	-0.169856514118516	7.67004821051773	0	0	0	0	0	0	
176085542.771385	-0.174312056513163	6.95637929150312	0	0	0	0	0	0	
177086043.021511	-0.180090201885144	6.2433365926012	0	0	0	0	0	0	
178086543.271636	-0.185783413015891	5.52927789935668	0	0	0	0	0	0	
179087043.521761	-0.193806020151016	4.81696401190049	0	0	0	0	0	0	
180087543.771886	-0.199489998075864	4.09984396158604	0	0	0	0	0	0	
181088044.022011	-0.205894051525962	3.38463503831183	0	0	0	0	0	0	
182088544.272136	-0.215587538923492	2.67481689987828	0	0	0	0	0	0	
183089044.522261	-0.224520700416192	1.96678958934944	0	0	0	0	0	0	
184089544.772386	-0.23426827789139	1.24137758882949	0	0	0	0	0	0	
185090045.022511	-0.240393127636383	0.534740108093345	0	0	0	0	0	0	
186090545.272636	-0.251915269769409	-0.195173638670804	0	0	0	0	0	0	
187091045.522761	-0.261784610476477	-0.938203384496257	0	0	0	0	0	0	
188091545.772886	-0.271281990619084	-1.68153814747253	0	0	0	0	0	0	
189092046.023011	-0.282343601905847	-2.42387669241063	0	0	0	0	0	0	
190092546.273136	-0.294609639800282	-3.17579787627023	0	0	0	0	0	0	
191093046.523261	-0.309370720171147	-3.92634338458853	0	0	0	0	0	0	
192093546.773386	-0.324962808643487	-4.68503431907708	0	0	0	0	0	0	
193094047.023511	-0.338596483144456	-5.4591225344897	0	0	0	0	0	0	
194094547.273636	-0.356011234888553	-6.23644050326236	0	0	0	0	0	0	
195095047.523761	-0.373495227972908	-7.02899399696027	0	0	0	0	0	0	
196095547.773886	-0.391861932194637	-7.81692006043087	0	0	0	0	0	0	
197096048.024012	-0.410133043342567	-8.62228833264046	0	0	0	0	0	0	
198096548.274137	-0.430458953366564	-9.43408397215103	0	0	0	0	0	0	
199097048.524262	-0.455405626328464	-10.2536774000357	0	0	0	0	0	0	
200097548.774387	-0.477816783479341	-11.0577128251538	0	0	0	0	0	0	
201098049.024512	-0.50227094999346	-11.8966747343528	0	0	0	0	0	0	
202098549.274637	-0.525057113904123	-12.7397298396958	0	0	0	0	0	0	
203099049.524762	-0.55003101383888	-13.5669205034806	0	0	0	0	0	0	
204099549.774887	-0.577960827584831	-14.4018546893681	0	0	0	0	0	0	
205100050.025012	-0.607796135793058	-15.2681209209261	0	0	0	0	0	0	
206100550.275137	-0.639621763681638	-16.1220047443346	0	0	0	0	0	0	
207101050.525262	-0.670361764273882	-16.9604483327016	0	0	0	0	0	0	
208101550.775387	-0.704704427384688	-17.8229458804498	0	0	0	0	0	0	
209102051.025512	-0.737610352726093	-18.6769531784224	0	0	0	0	0	0	
210102551.275637	-0.773484788956267	-19.5039176704548	0	0	0	0	0	0	
211103051.525762	-0.811231336105858	-20.3465001844095	0	0	0	0	0	0	
212103551.775887	-0.845212675862743	-21.2032390635388	0	0	0	0	0	0	
213104052.026012	-0.883869068276909	-22.0733095042405	0	0	0	0	0	0	
214104552.276137	-0.927084477063405	-22.939699987094	0	0	0	0	0	0	
215105052.526262	-0.972026623481544	-23.7946701731614	0	0	0	0	0	0	
216105552.776387	-1.01744551989834	-24.6428467575468	0	0	0	0	0	0	
217106053.026513	-1.06516635957875	-25.4757160660866	0	0	0	0	0	0	
218106553.276638	-1.11772850000654	-26.3316863804182	0	0	0	0	0	0	
219107053.526763	-1.16724068947351	-27.1504149828472	0	0	0	0	0	0	
220107553.776888	-1.22154710150801	-27.9922034110844	0	0	0	0	0	0	
221108054.027013	-1.27904632238336	-28.8321014299355	0	0	0	0	0	0	
222108554.277138	-1.33666989541455	-29.7024783257583	0	0	0	0	0	0	
223109054.527263	-1.40503564959313	-30.5383833243358	0	0	0	0	0	0	
224109554.777388	-1.47556772147988	-31.3669771990398	0	0	0	0	0	0	
225110055.027513	-1.54427162071166	-32.1613416124781	0	0	0	0	0	0	
226110555.277638	-1.61792564343862	-33.0148668968455	0	0	0	0	0	0	
227111055.527763	-1.70096190165311	-33.8176119688807	0	0	0	0	0	0	
228111555.777888	-1.77794022454519	-34.5944322328065	0	0	0	0	0	0	
229112056.028013	-1.86095593143689	-35.4256541544955	0	0	0	0	0	0	
230112556.278138	-1.94851988193168	-36.2228893960772	0	0	0	0	0	0	
231113056.528263	-2.03703043241812	-37.0426527857933	0	0	0	0	0	0	
232113556.778388	-2.13317979843991	-37.8114891421303	0	0	0	0	0	0	
233114057.028513	-2.22934247903768	-38.6531797112193	0	0	0	0	0	0	
234114557.278638	-2.34202729209047	-39.4051830611593	0	0	0	0	0	0	
235115057.528763	-2.44724659938295	-40.1150291331082	0	0	0	0	0	0	
236115557.778888	-2.5469138315031	-40.7885603847247	0	0	0	0	0	0	
237116058.029014	-2.64384745473871	-41.5184211212183	0	0	0	0	0	0	
238116558.279139	-2.75817702889018	-42.2922087617242	0	0	0	0	0	0	
239117058.529264	-2.864242633375	-42.9178950931612	0	0	0	0	0	0	
240117558.779389	-2.97295924541873	-43.6353087774925	0	0	0	0	0	0	
241118059.029514	-3.09683900681124	-44.3186764023786	0	0	0	0	0	0	
242118559.279639	-3.21547621810924	-44.939594095174	0	0	0	0	0	0	
243119059.529764	-3.33895118623211	-45.5343267653723	0	0	0	0	0	0	
244119559.779889	-3.45605972548742	-46.0671840178852	0	0	0	0	0	0	
245120060.030014	-3.57298093910375	-46.5576922731197	0	0	0	0	0	0	
246120560.280139	-3.67748719468941	-47.0700691346579	0	0	0	0	0	0	
247121060.530264	-3.79235631789559	-47.6422985624549	0	0	0	0	0	0	
248121560.780389	-3.91473613014342	-48.1374765406842	0	0	0	0	0	0	
249122061.030514	-4.03268312447793	-48.6023681974004	0	0	0	0	0	0	
250122561.280639	-4.15053357941426	-49.1041014456382	0	0	0	0	0	0	
251123061.530764	-4.28350317609796	-49.4915598385163	0	0	0	0	0	0	
252123561.780889	-4.40632680086662	-49.7380902463707	0	0	0	0	0	0	
253124062.031014	-4.50678389940285	-50.0758698858456	0	0	0	0	0	0	
254124562.281139	-4.61841345862006	-50.290821138912	0	0	0	0	0	0	
255125062.531264	-4.70336851630023	-50.5517292445903	0	0	0	0	0	0	
256125562.78139	-4.80130087085777	-50.9475817450792	0	0	0	0	0	0	
257126063.031515	-4.91847629746413	-51.2529615150093	0	0	0	0	0	0	
258126563.28164	-5.01846508286076	-51.4886242368993	0	0	0	0	0	0	
259127063.531765	-5.13835129384387	-51.701363771814	0	0	0	0	0	0	
260127563.78189	-5.2468157486729	-51.7607099022693	0	0	0	0	0	0	
261128064.032015	-5.32449659325182	-51.7734867594102	0	0	0	0	0	0	
262128564.28214	-5.39709664239563	-52.0468843147133	0	0	0	0	0	0	
263129064.532265	-5.49980604796554	-52.1685964501725	0	0	0	0	0	0	
264129564.78239	-5.55158750298496	-52.279870309645	0	0	0	0	0	0	
265130065.032515	-5.62804401258237	-52.6976608226962	0	0	0	0	0	0	
266130565.28264	-5.7545285045285	-52.9381740231263	0	0	0	0	0	0	
267131065.532765	-5.83690867417659	-52.9574227286885	0	0	0	0	0	0	
268131565.78289	-5.92148324357682	-53.1006063066786	0	0	0	0	0	0	
269132066.033015	-5.99744635566974	-53.2677836298573	0	0	0	0	0	0	
270132566.28314	-6.05707961701371	-53.4012726264554	0	0	0	0	0	0	
271133066.533265	-6.12110624173437	-53.7612166594687	0	0	0	0	0	0	
272133566.78339	-6.20232094655276	-54.0375553143464	0	0	0	0	0	0	
273134067.033515	-6.27054451706464	-54.3609319575921	0	0	0	0	0	0	
274134567.28364	-6.35478906894358	-54.7352641333741	0	0	0	0	0	0	
275135067.533765	-6.44037873153919	-55.0791185166303	0	0	0	0	0	0	
276135567.783891	-6.52697687772821	-55.3032621203989	0	0	0	0	0	0	
277136068.034016	-6.61717549943966	-55.5488260390049	0	0	0	0	0	0	
278136568.284141	-6.67559520772533	-55.8619095479692	0	0	0	0	0	0	
279137068.534266	-6.7378485665451	-56.1925653917459	0	0	0	0	0	0	
280137568.784391	-6.81361835671017	-56.6621640639513	0	0	0	0	0	0	
281138069.034516	-6.90750575924094	-57.1348987614498	0	0	0	0	0	0	
282138569.284641	-6.9805875098497	-57.5072757978747	0	0	0	0	0	0	
283139069.534766	-7.07923749692137	-58.1064811862273	0	0	0	0	0	0	
284139569.784891	-7.19478023402327	-58.4557964197451	0	0	0	0	0	0	
285140070.035016	-7.29018252300935	-58.7719513938158	0	0	0	0	0	0	
286140570.285141	-7.39378696568658	-59.0632758143211	0	0	0	0	0	0	
287141070.535266	-7.46988925860327	-59.3656029646815	0	0	0	0	0	0	
288141570.785391	-7.54683677070437	-59.7678240885453	0	0	0	0	0	0	
289142071.035516	-7.62141026617939	-60.3739737861367	0	0	0	0	0	0	
290142571.285641	-7.7689797354449	-60.8742973524688	0	0	0	0	0	0	
291143071.535766	-7.88797103372879	-61.1671698902089	0	0	0	0	0	0	
292143571.785891	-7.97864951457545	-61.4894410691915	0	0	0	0	0	0	
293144072.036016	-8.12306538901939	-61.9117292348612	0	0	0	0	0	0	
294144572.286141	-8.25343944262547	-61.9888561632389	0	0	0	0	0	0	
295145072.536267	-8.35169621119315	-62.0702868652777	0	0	0	0	0	0	
