!Keysight Technologies N9923A: A.08.09
!Date: Wednesday, 01 August 2018 08:16:19
!Timezone: (GMT+08:00) Kuala Lumpur, Singapore
!Model: N9923A
!Serial: MY52412143
!GPS Latitude: 
!GPS Longitude: 
!GPS TimeStamp: 0001-01-01 00:00:00Z
!GPS Seconds Since Last Read: 0
!CHECKSUM:0670262757
!Correction: S11(ON U)S21()S12()S22()
!S2P File: Measurements:S11,S21,S12,S22:
# Hz S DB R 50
5000000	0.0379527075527785	172.815304879269	0	0	0	0	0	0	
6000500.25012506	0.0312297596997186	171.41374219733	0	0	0	0	0	0	
7001000.50025013	0.024075086269923	169.99414632396	0	0	0	0	0	0	
8001500.75037519	0.014415460391761	168.581325760541	0	0	0	0	0	0	
9002001.00050025	0.00700027201702495	167.171500038756	0	0	0	0	0	0	
10002501.2506253	0.00144874214343425	165.768376973274	0	0	0	0	0	0	
11003001.5007504	-0.00587087078342931	164.357146266969	0	0	0	0	0	0	
12003501.7508754	-0.0127699053187982	162.954388728201	0	0	0	0	0	0	
13004002.0010005	-0.0178509144805438	161.543443538511	0	0	0	0	0	0	
14004502.2511256	-0.022134351502203	160.128903055661	0	0	0	0	0	0	
15005002.5012506	-0.0255479221273281	158.733939934797	0	0	0	0	0	0	
16005502.7513757	-0.0263904254641125	157.32742814414	0	0	0	0	0	0	
17006003.0015007	-0.0256554124913309	155.923890591651	0	0	0	0	0	0	
18006503.2516258	-0.0287099122732904	154.525549739108	0	0	0	0	0	0	
19007003.5017509	-0.026419666680634	153.134317899634	0	0	0	0	0	0	
20007503.7518759	-0.0240352727220347	151.759173182819	0	0	0	0	0	0	
21008004.002001	-0.0208445647631396	150.372376649397	0	0	0	0	0	0	
22008504.2521261	-0.0153436304346569	148.992773340865	0	0	0	0	0	0	
23009004.5022511	-0.0104025196253235	147.620198052081	0	0	0	0	0	0	
24009504.7523762	-0.00561718868648127	146.25825414068	0	0	0	0	0	0	
25010005.0025012	0.00420107877214459	144.927854282899	0	0	0	0	0	0	
26010505.2526263	0.0056814387925026	143.562180054461	0	0	0	0	0	0	
27011005.5027514	0.013647287258745	142.22592549952	0	0	0	0	0	0	
28011505.7528764	0.0163224084273209	140.887729823407	0	0	0	0	0	0	
29012006.0030015	0.0226831378514167	139.553586412099	0	0	0	0	0	0	
30012506.2531265	0.0252706119252478	138.237772378973	0	0	0	0	0	0	
31013006.5032516	0.0279412765262449	136.907618172001	0	0	0	0	0	0	
32013506.7533767	0.026066979204735	135.618717234159	0	0	0	0	0	0	
33014007.0035017	0.024778870976256	134.327036289849	0	0	0	0	0	0	
34014507.2536268	0.0198692528342672	133.024385320139	0	0	0	0	0	0	
35015007.5037519	0.0168431296470226	131.767302988334	0	0	0	0	0	0	
36015507.7538769	0.00973219675084372	130.488344300056	0	0	0	0	0	0	
37016008.004002	0.00329268661551097	129.212248015257	0	0	0	0	0	0	
38016508.2541271	-0.00505753998235659	127.977029707647	0	0	0	0	0	0	
39017008.5042521	-0.0145165507753416	126.732194320431	0	0	0	0	0	0	
40017508.7543772	-0.0220069206926568	125.487958416628	0	0	0	0	0	0	
41018009.0045023	-0.0248709116368628	124.235109102429	0	0	0	0	0	0	
42018509.2546273	-0.0332177415590367	123.027462406791	0	0	0	0	0	0	
43019009.5047524	-0.039244874088942	121.792106053116	0	0	0	0	0	0	
44019509.7548774	-0.0426854818090722	120.59028010383	0	0	0	0	0	0	
45020010.0050025	-0.0490674538657784	119.402909998167	0	0	0	0	0	0	
46020510.2551276	-0.0531675742600559	118.193148153244	0	0	0	0	0	0	
47021010.5052526	-0.0531957754853186	116.999692278579	0	0	0	0	0	0	
48021510.7553777	-0.0534256617994111	115.806430267519	0	0	0	0	0	0	
49022011.0055028	-0.0560501963265792	114.637294028889	0	0	0	0	0	0	
50022511.2556278	-0.0573531250946383	113.43110157263	0	0	0	0	0	0	
51023011.5057529	-0.0580105536445628	112.255378353389	0	0	0	0	0	0	
52023511.755878	-0.0543687237196196	111.111573710135	0	0	0	0	0	0	
53024012.006003	-0.0533488307979276	109.918590614831	0	0	0	0	0	0	
54024512.2561281	-0.0493558734989857	108.758201427952	0	0	0	0	0	0	
55025012.5062532	-0.046282655213986	107.590472993194	0	0	0	0	0	0	
56025512.7563782	-0.0429058662599906	106.440640161583	0	0	0	0	0	0	
57026013.0065033	-0.0363859234095939	105.308414378994	0	0	0	0	0	0	
58026513.2566284	-0.0327152443910866	104.183802814265	0	0	0	0	0	0	
59027013.5067534	-0.0277184796441911	103.062594027116	0	0	0	0	0	0	
60027513.7568785	-0.018062025727139	101.978895248135	0	0	0	0	0	0	
61028014.0070036	-0.011610757823925	100.852999127868	0	0	0	0	0	0	
62028514.2571286	-0.00540649386410859	99.794276651366	0	0	0	0	0	0	
63029014.5072537	-0.00103007697583085	98.7028450742335	0	0	0	0	0	0	
64029514.7573788	0.00553770645945956	97.6384985371952	0	0	0	0	0	0	
65030015.0075038	0.0116241307919455	96.5949721155837	0	0	0	0	0	0	
66030515.2576289	0.0118724375508796	95.5566946837151	0	0	0	0	0	0	
67031015.507754	0.0118828335234588	94.4971409819701	0	0	0	0	0	0	
68031515.757879	0.0110129678265721	93.4764186117872	0	0	0	0	0	0	
69032016.0080041	0.00611276322139059	92.4462326643493	0	0	0	0	0	0	
70032516.2581291	0.00976464773003602	91.4321801153677	0	0	0	0	0	0	
71033016.5082542	0.000179966332196657	90.3961586236009	0	0	0	0	0	0	
72033516.7583793	-0.00407213412491355	89.3777820480457	0	0	0	0	0	0	
73034017.0085043	-0.00900899299318527	88.3775183690264	0	0	0	0	0	0	
74034517.2586294	-0.0126600757674813	87.3733303160006	0	0	0	0	0	0	
75035017.5087545	-0.0175326427131552	86.3969604766964	0	0	0	0	0	0	
76035517.7588795	-0.0238122556308902	85.3796236885176	0	0	0	0	0	0	
77036018.0090046	-0.0270490024183195	84.3877321177126	0	0	0	0	0	0	
78036518.2591297	-0.0314867847347889	83.4086549267015	0	0	0	0	0	0	
79037018.5092547	-0.0348271767419486	82.4152861779357	0	0	0	0	0	0	
80037518.7593798	-0.0384235866485723	81.4328757961484	0	0	0	0	0	0	
81038019.0095049	-0.0419531667299195	80.4644031409479	0	0	0	0	0	0	
82038519.2596299	-0.0425651659503425	79.5158104343475	0	0	0	0	0	0	
83039019.509755	-0.0445494806335135	78.5521766883226	0	0	0	0	0	0	
84039519.7598801	-0.0427023763341531	77.6021244536384	0	0	0	0	0	0	
85040020.0100051	-0.0445687704223691	76.6562638733677	0	0	0	0	0	0	
86040520.2601302	-0.0438743806307542	75.7179015066515	0	0	0	0	0	0	
87041020.5102553	-0.0419671442236404	74.7853228121416	0	0	0	0	0	0	
88041520.7603803	-0.042911337300867	73.8390196560167	0	0	0	0	0	0	
89042021.0105054	-0.0414394348235576	72.921131282415	0	0	0	0	0	0	
90042521.2606305	-0.0332282764763012	72.0215535251883	0	0	0	0	0	0	
91043021.5107555	-0.0355011815266607	71.1020875632898	0	0	0	0	0	0	
92043521.7608806	-0.033015278936086	70.1724769243288	0	0	0	0	0	0	
93044022.0110057	-0.0254875171119759	69.2761286574884	0	0	0	0	0	0	
94044522.2611307	-0.0203961452239546	68.4152418800236	0	0	0	0	0	0	
95045022.5112558	-0.0210846012689896	67.527899408905	0	0	0	0	0	0	
96045522.7613809	-0.00857612476019093	66.6711800670754	0	0	0	0	0	0	
97046023.0115059	-0.00155240434806469	65.8140454766113	0	0	0	0	0	0	
98046523.261631	0.00240520211909541	64.9568103827941	0	0	0	0	0	0	
99047023.511756	0.00824297369541247	64.1036310717598	0	0	0	0	0	0	
100047523.761881	0.0111879665669328	63.3006985089625	0	0	0	0	0	0	
101048024.012006	0.0145641317798305	62.4581763065977	0	0	0	0	0	0	
102048524.262131	0.016404146239434	61.639422304206	0	0	0	0	0	0	
103049024.512256	0.0172723989431163	60.8279809410753	0	0	0	0	0	0	
104049524.762381	0.0156430492862973	60.0011130850765	0	0	0	0	0	0	
105050025.012506	0.013832661407592	59.1896667068921	0	0	0	0	0	0	
106050525.262632	0.00921910460767287	58.3740060570575	0	0	0	0	0	0	
107051025.512757	0.00464081460829543	57.55962435096	0	0	0	0	0	0	
108051525.762882	-0.00112694430146365	56.7446051419253	0	0	0	0	0	0	
109052026.013007	-0.00655284740484992	55.9438651528854	0	0	0	0	0	0	
110052526.263132	-0.0111589472801191	55.1290540562889	0	0	0	0	0	0	
111053026.513257	-0.016543366426154	54.3131334122702	0	0	0	0	0	0	
112053526.763382	-0.0215845394042394	53.5098204503897	0	0	0	0	0	0	
113054027.013507	-0.0268326970853127	52.7035245410455	0	0	0	0	0	0	
114054527.263632	-0.0324758514060778	51.8884888829167	0	0	0	0	0	0	
115055027.513757	-0.0342191111685216	51.0853097263959	0	0	0	0	0	0	
116055527.763882	-0.0383590018019074	50.2972938559471	0	0	0	0	0	0	
117056028.014007	-0.0399781780639466	49.4783650778629	0	0	0	0	0	0	
118056528.264132	-0.041301198406691	48.6836612688192	0	0	0	0	0	0	
119057028.514257	-0.0430472999363702	47.8878186060004	0	0	0	0	0	0	
120057528.764382	-0.0416136934658051	47.0968706653903	0	0	0	0	0	0	
121058029.014507	-0.0378392573643909	46.3126302908371	0	0	0	0	0	0	
122058529.264633	-0.0396541297835528	45.5290292988087	0	0	0	0	0	0	
123059029.514758	-0.0359319701083963	44.7484919923164	0	0	0	0	0	0	
124059529.764883	-0.0356965762693024	43.9737474144966	0	0	0	0	0	0	
125060030.015008	-0.0331679321396379	43.1918149312149	0	0	0	0	0	0	
126060530.265133	-0.0290542364455791	42.4209177598301	0	0	0	0	0	0	
127061030.515258	-0.0270152868005392	41.6606062866475	0	0	0	0	0	0	
128061530.765383	-0.0217527265642778	40.8978548895967	0	0	0	0	0	0	
129062031.015508	-0.0159133857302729	40.148608929088	0	0	0	0	0	0	
130062531.265633	-0.01236120832687	39.4036951198499	0	0	0	0	0	0	
131063031.515758	-0.00653531336308358	38.6643049298597	0	0	0	0	0	0	
132063531.765883	-0.00199202586462699	37.9437930786258	0	0	0	0	0	0	
133064032.016008	0.00188890941682963	37.2261540605972	0	0	0	0	0	0	
134064532.266133	0.00561611371598069	36.4985215763068	0	0	0	0	0	0	
135065032.516258	0.0102599372864138	35.7968376977767	0	0	0	0	0	0	
136065532.766383	0.0117314120397325	35.0665234863554	0	0	0	0	0	0	
137066033.016508	0.0133580888528091	34.3703160441006	0	0	0	0	0	0	
138066533.266634	0.0155404439181871	33.6700352841349	0	0	0	0	0	0	
139067033.516759	0.0145238404850362	32.9639118608259	0	0	0	0	0	0	
140067533.766884	0.012952620982807	32.2571348543796	0	0	0	0	0	0	
141068034.017009	0.00889225363779678	31.5620791957917	0	0	0	0	0	0	
142068534.267134	0.00564812810574795	30.8511795242711	0	0	0	0	0	0	
143069034.517259	-0.0015698107412523	30.155771548104	0	0	0	0	0	0	
144069534.767384	-0.00757519574881457	29.4415702857458	0	0	0	0	0	0	
145070035.017509	-0.0142265950658446	28.7389321401123	0	0	0	0	0	0	
146070535.267634	-0.0233469485632424	28.0272684710451	0	0	0	0	0	0	
147071035.517759	-0.0291035782778628	27.3176793856495	0	0	0	0	0	0	
148071535.767884	-0.0360726453471755	26.5868890619371	0	0	0	0	0	0	
149072036.018009	-0.0451040121794713	25.8602352963997	0	0	0	0	0	0	
150072536.268134	-0.0514915313913914	25.13715611145	0	0	0	0	0	0	
151073036.518259	-0.0586030160726533	24.4071581162174	0	0	0	0	0	0	
152073536.768384	-0.0648415563018665	23.6816706072133	0	0	0	0	0	0	
153074037.018509	-0.0703441703043975	22.9580985146886	0	0	0	0	0	0	
154074537.268634	-0.0726616224585029	22.2160203592147	0	0	0	0	0	0	
155075037.518759	-0.0778433698065507	21.4821193208285	0	0	0	0	0	0	
156075537.768884	-0.0788006771606975	20.7531839982034	0	0	0	0	0	0	
157076038.01901	-0.0822162863655383	20.0215883123219	0	0	0	0	0	0	
158076538.269135	-0.0845098162557577	19.2947362882863	0	0	0	0	0	0	
159077038.51926	-0.0840258734144887	18.5415069662404	0	0	0	0	0	0	
160077538.769385	-0.0862916550749446	17.8457893357117	0	0	0	0	0	0	
161078039.01951	-0.084339929019428	17.1008721943701	0	0	0	0	0	0	
162078539.269635	-0.0822764758611144	16.3828359252437	0	0	0	0	0	0	
163079039.51976	-0.0823744237294406	15.6556696834105	0	0	0	0	0	0	
164079539.769885	-0.0808016316351462	14.9338454684409	0	0	0	0	0	0	
165080040.02001	-0.0788694675474865	14.1988746645626	0	0	0	0	0	0	
166080540.270135	-0.075037997159258	13.4798455877047	0	0	0	0	0	0	
167081040.52026	-0.0731827493075604	12.7637139960732	0	0	0	0	0	0	
168081540.770385	-0.0730611791584217	12.0519126757024	0	0	0	0	0	0	
169082041.02051	-0.0748877361416168	11.3235669077054	0	0	0	0	0	0	
170082541.270635	-0.0758285063401367	10.6165730943946	0	0	0	0	0	0	
171083041.52076	-0.0778153075719298	9.91665672325717	0	0	0	0	0	0	
172083541.770885	-0.0815762074512747	9.20286842150047	0	0	0	0	0	0	
173084042.02101	-0.084932830328461	8.48815223568269	0	0	0	0	0	0	
174084542.271135	-0.0910492456984075	7.78906551617537	0	0	0	0	0	0	
175085042.52126	-0.0975780411815457	7.07643009987323	0	0	0	0	0	0	
176085542.771385	-0.103108644596389	6.35656247170453	0	0	0	0	0	0	
177086043.021511	-0.111950097788394	5.64632591330878	0	0	0	0	0	0	
178086543.271636	-0.120892094849834	4.92428700186804	0	0	0	0	0	0	
179087043.521761	-0.136091187821571	4.20600909803383	0	0	0	0	0	0	
180087543.771886	-0.149570275715871	3.4706315719343	0	0	0	0	0	0	
181088044.022011	-0.162802578314482	2.75028296054193	0	0	0	0	0	0	
182088544.272136	-0.175496028612019	1.99893159696715	0	0	0	0	0	0	
183089044.522261	-0.191948221410437	1.24622419612985	0	0	0	0	0	0	
184089544.772386	-0.207136341960062	0.492214810253729	0	0	0	0	0	0	
185090045.022511	-0.225102525154759	-0.273908402941492	0	0	0	0	0	0	
186090545.272636	-0.243422838025807	-1.030760568659	0	0	0	0	0	0	
187091045.522761	-0.257870343487116	-1.81471117545672	0	0	0	0	0	0	
188091545.772886	-0.271107304463851	-2.59013461598014	0	0	0	0	0	0	
189092046.023011	-0.289504015570874	-3.38815944185226	0	0	0	0	0	0	
190092546.273136	-0.306884559708984	-4.16384992036679	0	0	0	0	0	0	
191093046.523261	-0.324200504397385	-4.95022900612372	0	0	0	0	0	0	
192093546.773386	-0.335938855588779	-5.74408137827888	0	0	0	0	0	0	
193094047.023511	-0.348900152155004	-6.56493528463771	0	0	0	0	0	0	
194094547.273636	-0.366474105535037	-7.37531942365753	0	0	0	0	0	0	
195095047.523761	-0.381846245828178	-8.16693218042898	0	0	0	0	0	0	
196095547.773886	-0.396468516621131	-8.97436339394374	0	0	0	0	0	0	
197096048.024012	-0.411649278846241	-9.75634077018301	0	0	0	0	0	0	
198096548.274137	-0.425441902346949	-10.5771523345843	0	0	0	0	0	0	
199097048.524262	-0.435361407211457	-11.397225644312	0	0	0	0	0	0	
200097548.774387	-0.453681635185833	-12.1820935155197	0	0	0	0	0	0	
201098049.024512	-0.471907688598673	-13.0212603136911	0	0	0	0	0	0	
202098549.274637	-0.48788913243655	-13.8012461350884	0	0	0	0	0	0	
203099049.524762	-0.505322526579317	-14.6341738914215	0	0	0	0	0	0	
204099549.774887	-0.522212449475548	-15.462578014964	0	0	0	0	0	0	
205100050.025012	-0.546664936910783	-16.3062252817591	0	0	0	0	0	0	
206100550.275137	-0.573773982320006	-17.1344506353048	0	0	0	0	0	0	
207101050.525262	-0.600691217431038	-17.9650327264634	0	0	0	0	0	0	
208101550.775387	-0.63352096991023	-18.754050294691	0	0	0	0	0	0	
209102051.025512	-0.66128722189081	-19.5721673400772	0	0	0	0	0	0	
210102551.275637	-0.695986180122237	-20.4156641234443	0	0	0	0	0	0	
211103051.525762	-0.731029927603743	-21.2732795201948	0	0	0	0	0	0	
212103551.775887	-0.775373205026078	-22.1166973913971	0	0	0	0	0	0	
213104052.026012	-0.822185898561842	-22.9600466063571	0	0	0	0	0	0	
214104552.276137	-0.870855683474155	-23.7882470818184	0	0	0	0	0	0	
215105052.526262	-0.918493900096709	-24.6147120443398	0	0	0	0	0	0	
216105552.776387	-0.96354118899809	-25.4681719380113	0	0	0	0	0	0	
217106053.026513	-1.01291355889737	-26.402005786269	0	0	0	0	0	0	
218106553.276638	-1.07513407213146	-27.3491840209388	0	0	0	0	0	0	
219107053.526763	-1.14856184148143	-28.2205569996774	0	0	0	0	0	0	
220107553.776888	-1.21718309403729	-29.1120692678595	0	0	0	0	0	0	
221108054.027013	-1.28430469395065	-29.9735377593501	0	0	0	0	0	0	
222108554.277138	-1.35748035707894	-30.8711642499762	0	0	0	0	0	0	
223109054.527263	-1.43792599092006	-31.8079059176947	0	0	0	0	0	0	
224109554.777388	-1.5344604961625	-32.6883193202244	0	0	0	0	0	0	
225110055.027513	-1.62869831377035	-33.4814011593663	0	0	0	0	0	0	
226110555.277638	-1.72024139248925	-34.1548596185444	0	0	0	0	0	0	
227111055.527763	-1.78741796442397	-34.8484202180218	0	0	0	0	0	0	
228111555.777888	-1.8483960788907	-35.5927732150217	0	0	0	0	0	0	
229112056.028013	-1.91571209575049	-36.4398853942424	0	0	0	0	0	0	
230112556.278138	-1.9881849022851	-37.3015320494333	0	0	0	0	0	0	
231113056.528263	-2.06743782837157	-38.1488838503411	0	0	0	0	0	0	
232113556.778388	-2.15307308422892	-38.9973090782937	0	0	0	0	0	0	
233114057.028513	-2.23509757192331	-39.7427259318364	0	0	0	0	0	0	
234114557.278638	-2.31359879080369	-40.528091696467	0	0	0	0	0	0	
235115057.528763	-2.39424267850944	-41.3821502065703	0	0	0	0	0	0	
236115557.778888	-2.48821856298714	-42.221504601324	0	0	0	0	0	0	
237116058.029014	-2.59264670641492	-43.0243259032341	0	0	0	0	0	0	
238116558.279139	-2.70904798828796	-43.7122869246174	0	0	0	0	0	0	
239117058.529264	-2.80995744665429	-44.3452601987291	0	0	0	0	0	0	
240117558.779389	-2.92199333650379	-44.9899290286433	0	0	0	0	0	0	
241118059.029514	-3.03702810119124	-45.6022324820964	0	0	0	0	0	0	
242118559.279639	-3.15454657317094	-46.1292027927955	0	0	0	0	0	0	
243119059.529764	-3.2646716974132	-46.5796684518766	0	0	0	0	0	0	
244119559.779889	-3.37449298708241	-46.971161565077	0	0	0	0	0	0	
245120060.030014	-3.4639357097218	-47.4304569423466	0	0	0	0	0	0	
246120560.280139	-3.56450217343264	-47.9807377009548	0	0	0	0	0	0	
247121060.530264	-3.68190284588879	-48.4905341158666	0	0	0	0	0	0	
248121560.780389	-3.80109459098586	-48.8838934492724	0	0	0	0	0	0	
249122061.030514	-3.90824300256634	-49.2664618365214	0	0	0	0	0	0	
250122561.280639	-3.99349095962969	-49.7264929238449	0	0	0	0	0	0	
251123061.530764	-4.10276121093036	-50.3811411859992	0	0	0	0	0	0	
252123561.780889	-4.24618088627897	-50.9560066169294	0	0	0	0	0	0	
253124062.031014	-4.39323451329202	-51.3150730571098	0	0	0	0	0	0	
254124562.281139	-4.52273438401863	-51.6641673554565	0	0	0	0	0	0	
255125062.531264	-4.64950700355884	-51.9235602977491	0	0	0	0	0	0	
256125562.78139	-4.77627006141189	-52.1572466223827	0	0	0	0	0	0	
257126063.031515	-4.87934050958224	-52.4428160534083	0	0	0	0	0	0	
258126563.28164	-4.99118459247706	-52.7205700214323	0	0	0	0	0	0	
259127063.531765	-5.09947178136875	-53.0365495616965	0	0	0	0	0	0	
260127563.78189	-5.2193985443073	-53.1809020229476	0	0	0	0	0	0	
261128064.032015	-5.29574056454592	-53.2542954801693	0	0	0	0	0	0	
262128564.28214	-5.35446958589719	-53.5436514203388	0	0	0	0	0	0	
263129064.532265	-5.4124024221905	-53.9822581437029	0	0	0	0	0	0	
264129564.78239	-5.49165350644799	-54.4242411043473	0	0	0	0	0	0	
265130065.032515	-5.57460346876643	-54.9658996111659	0	0	0	0	0	0	
266130565.28264	-5.68772544205664	-55.4026289188013	0	0	0	0	0	0	
267131065.532765	-5.77639705667058	-55.6626529083201	0	0	0	0	0	0	
268131565.78289	-5.84718691412677	-56.031656560077	0	0	0	0	0	0	
269132066.033015	-5.92494386167086	-56.4894615602696	0	0	0	0	0	0	
270132566.28314	-6.02115160588738	-56.9254180776848	0	0	0	0	0	0	
271133066.533265	-6.12770880178326	-57.2629336886398	0	0	0	0	0	0	
272133566.78339	-6.22177455512735	-57.390312895675	0	0	0	0	0	0	
273134067.033515	-6.29262197394802	-57.5048693037556	0	0	0	0	0	0	
274134567.28364	-6.36245666498899	-57.7019251641166	0	0	0	0	0	0	
275135067.533765	-6.41040904290966	-57.8949511999699	0	0	0	0	0	0	
276135567.783891	-6.45762897043052	-58.2176746998865	0	0	0	0	0	0	
277136068.034016	-6.51298359251556	-58.5438969987318	0	0	0	0	0	0	
278136568.284141	-6.58289763176056	-58.8541066253899	0	0	0	0	0	0	
279137068.534266	-6.63817162090862	-59.1441393058321	0	0	0	0	0	0	
280137568.784391	-6.69653157586948	-59.5204274810837	0	0	0	0	0	0	
281138069.034516	-6.753147992843	-60.009647964595	0	0	0	0	0	0	
282138569.284641	-6.8486765068736	-60.6991766014467	0	0	0	0	0	0	
283139069.534766	-6.95887958123289	-61.1325598882369	0	0	0	0	0	0	
284139569.784891	-7.0726870766379	-61.5340425153967	0	0	0	0	0	0	
285140070.035016	-7.19483710553202	-61.8768322826846	0	0	0	0	0	0	
286140570.285141	-7.31626095080281	-62.2094999121689	0	0	0	0	0	0	
287141070.535266	-7.42562420529352	-62.5921608660962	0	0	0	0	0	0	
288141570.785391	-7.57054649097145	-63.0342795049136	0	0	0	0	0	0	
289142071.035516	-7.72698896815165	-63.214428397984	0	0	0	0	0	0	
290142571.285641	-7.86702026705209	-63.2566731284194	0	0	0	0	0	0	
291143071.535766	-7.94258612065168	-63.2976158276028	0	0	0	0	0	0	
292143571.785891	-8.04510787734008	-63.6383905422967	0	0	0	0	0	0	
293144072.036016	-8.14814394935808	-64.1067624055273	0	0	0	0	0	0	
294144572.286141	-8.26379164718589	-64.5943326605516	0	0	0	0	0	0	
295145072.536267	-8.38723443434106	-64.9197805983181	0	0	0	0	0	0	
