!Keysight Technologies N9923A: A.08.09
!Date: Wednesday, 01 August 2018 07:12:22
!Timezone: (GMT+08:00) Kuala Lumpur, Singapore
!Model: N9923A
!Serial: MY52412143
!GPS Latitude: 
!GPS Longitude: 
!GPS TimeStamp: 0001-01-01 00:00:00Z
!GPS Seconds Since Last Read: 0
!CHECKSUM:1315533778
!Correction: S11(ON U)S21()S12()S22()
!S2P File: Measurements:S11,S21,S12,S22:
# Hz S DB R 50
5000000	-0.0207963868626667	172.821250443944	0	0	0	0	0	0	
6000500.25012506	-0.0208480366350556	171.401305700619	0	0	0	0	0	0	
7001000.50025013	-0.0246867443852948	169.9746213774	0	0	0	0	0	0	
8001500.75037519	-0.0256825484707981	168.571614500277	0	0	0	0	0	0	
9002001.00050025	-0.0265861682580735	167.175347056842	0	0	0	0	0	0	
10002501.2506253	-0.0297241807377575	165.776733826423	0	0	0	0	0	0	
11003001.5007504	-0.0306871141768825	164.386205399094	0	0	0	0	0	0	
12003501.7508754	-0.0304345939264722	162.991050620774	0	0	0	0	0	0	
13004002.0010005	-0.0314051799562232	161.602242461006	0	0	0	0	0	0	
14004502.2511256	-0.0293948457770881	160.216716385196	0	0	0	0	0	0	
15005002.5012506	-0.0314877326015206	158.840115414983	0	0	0	0	0	0	
16005502.7513757	-0.0309701266341705	157.450311746013	0	0	0	0	0	0	
17006003.0015007	-0.0315440839954884	156.079036226582	0	0	0	0	0	0	
18006503.2516258	-0.0318649841950018	154.691470168446	0	0	0	0	0	0	
19007003.5017509	-0.0336855083068797	153.317360366336	0	0	0	0	0	0	
20007503.7518759	-0.0346306468736481	151.953468578835	0	0	0	0	0	0	
21008004.002001	-0.0341938767395025	150.586110140922	0	0	0	0	0	0	
22008504.2521261	-0.0363304372083873	149.216336201593	0	0	0	0	0	0	
23009004.5022511	-0.0394836950878823	147.851833761924	0	0	0	0	0	0	
24009504.7523762	-0.037350914894758	146.513443589748	0	0	0	0	0	0	
25010005.0025012	-0.0355156743150511	145.14406255749	0	0	0	0	0	0	
26010505.2526263	-0.0389435695660093	143.819538489777	0	0	0	0	0	0	
27011005.5027514	-0.0421710519031311	142.47765903242	0	0	0	0	0	0	
28011505.7528764	-0.0380722558782262	141.158008519459	0	0	0	0	0	0	
29012006.0030015	-0.0411751939117093	139.841682078625	0	0	0	0	0	0	
30012506.2531265	-0.0448071777345235	138.498430720649	0	0	0	0	0	0	
31013006.5032516	-0.0443085929627908	137.206532284975	0	0	0	0	0	0	
32013506.7533767	-0.0445451456930397	135.915103581492	0	0	0	0	0	0	
33014007.0035017	-0.0414853328732612	134.617966296687	0	0	0	0	0	0	
34014507.2536268	-0.0428358875347602	133.315345406783	0	0	0	0	0	0	
35015007.5037519	-0.0429694366311148	132.027313689496	0	0	0	0	0	0	
36015507.7538769	-0.043976614042098	130.757916879846	0	0	0	0	0	0	
37016008.004002	-0.0489440032433197	129.484416868689	0	0	0	0	0	0	
38016508.2541271	-0.0471374384177908	128.213384658687	0	0	0	0	0	0	
39017008.5042521	-0.0468959560173984	126.949760679871	0	0	0	0	0	0	
40017508.7543772	-0.0467477340102012	125.689600700361	0	0	0	0	0	0	
41018009.0045023	-0.0463171092139174	124.45250779586	0	0	0	0	0	0	
42018509.2546273	-0.0433659437397217	123.228712900634	0	0	0	0	0	0	
43019009.5047524	-0.0434677423392457	121.980470155492	0	0	0	0	0	0	
44019509.7548774	-0.0402896440044729	120.780935111643	0	0	0	0	0	0	
45020010.0050025	-0.0415034189884901	119.56040336034	0	0	0	0	0	0	
46020510.2551276	-0.0392578150465506	118.361602584769	0	0	0	0	0	0	
47021010.5052526	-0.0385132563245363	117.155638861857	0	0	0	0	0	0	
48021510.7553777	-0.0393620940140841	115.962145134619	0	0	0	0	0	0	
49022011.0055028	-0.0388223480774877	114.808588437056	0	0	0	0	0	0	
50022511.2556278	-0.039832231682962	113.607189934308	0	0	0	0	0	0	
51023011.5057529	-0.0423549952918366	112.446200219191	0	0	0	0	0	0	
52023511.755878	-0.0446315553218762	111.280229043804	0	0	0	0	0	0	
53024012.006003	-0.0459698195995217	110.10966952026	0	0	0	0	0	0	
54024512.2561281	-0.0487479321412961	108.944223270476	0	0	0	0	0	0	
55025012.5062532	-0.0495917097489488	107.820284108707	0	0	0	0	0	0	
56025512.7563782	-0.0545720369928984	106.64231435836	0	0	0	0	0	0	
57026013.0065033	-0.0545965950268741	105.503783248061	0	0	0	0	0	0	
58026513.2566284	-0.0571786824094459	104.378392322478	0	0	0	0	0	0	
59027013.5067534	-0.0559687364000721	103.251563195906	0	0	0	0	0	0	
60027513.7568785	-0.0550199452196322	102.143431946909	0	0	0	0	0	0	
61028014.0070036	-0.0530476836589579	101.033993561166	0	0	0	0	0	0	
62028514.2571286	-0.0534976597181884	99.9392479096839	0	0	0	0	0	0	
63029014.5072537	-0.0497905769252837	98.8498378638356	0	0	0	0	0	0	
64029514.7573788	-0.0498933025884278	97.7752227999207	0	0	0	0	0	0	
65030015.0075038	-0.0480574270313917	96.6953607789229	0	0	0	0	0	0	
66030515.2576289	-0.0433771742498322	95.6126361209047	0	0	0	0	0	0	
67031015.507754	-0.0448326641815377	94.5741770016101	0	0	0	0	0	0	
68031515.757879	-0.043618287282365	93.5340703702378	0	0	0	0	0	0	
69032016.0080041	-0.0437917924581373	92.4535402306146	0	0	0	0	0	0	
70032516.2581291	-0.0457209894169431	91.4345401036805	0	0	0	0	0	0	
71033016.5082542	-0.0460014292032397	90.3933085305222	0	0	0	0	0	0	
72033516.7583793	-0.0436407009644025	89.367619320097	0	0	0	0	0	0	
73034017.0085043	-0.0446352116783645	88.3369949298203	0	0	0	0	0	0	
74034517.2586294	-0.0405225519051672	87.3377695006377	0	0	0	0	0	0	
75035017.5087545	-0.0428070781473951	86.3228876071892	0	0	0	0	0	0	
76035517.7588795	-0.0403437024583511	85.3167922727209	0	0	0	0	0	0	
77036018.0090046	-0.0380485195343413	84.3204440308238	0	0	0	0	0	0	
78036518.2591297	-0.0362543461731073	83.3450969487744	0	0	0	0	0	0	
79037018.5092547	-0.0345098180263866	82.3533736177025	0	0	0	0	0	0	
80037518.7593798	-0.0347365778159038	81.409106998015	0	0	0	0	0	0	
81038019.0095049	-0.0326907152553748	80.4465814990397	0	0	0	0	0	0	
82038519.2596299	-0.0291479705830705	79.4929052098121	0	0	0	0	0	0	
83039019.509755	-0.0308004759246471	78.563907508757	0	0	0	0	0	0	
84039519.7598801	-0.0315733026345907	77.6082811625432	0	0	0	0	0	0	
85040020.0100051	-0.0311138386847926	76.687369980769	0	0	0	0	0	0	
86040520.2601302	-0.0348235919442966	75.76839835519	0	0	0	0	0	0	
87041020.5102553	-0.0354597360805743	74.8394647335349	0	0	0	0	0	0	
88041520.7603803	-0.0398556048993249	73.9204765855369	0	0	0	0	0	0	
89042021.0105054	-0.0411488682411326	72.9903919936701	0	0	0	0	0	0	
90042521.2606305	-0.0428946412884572	72.0820626753915	0	0	0	0	0	0	
91043021.5107555	-0.0437875582897763	71.170266316967	0	0	0	0	0	0	
92043521.7608806	-0.0450036600822207	70.265500589029	0	0	0	0	0	0	
93044022.0110057	-0.0503721470666237	69.3597264224468	0	0	0	0	0	0	
94044522.2611307	-0.051980877422587	68.4666725360632	0	0	0	0	0	0	
95045022.5112558	-0.0524191897684723	67.5884296054831	0	0	0	0	0	0	
96045522.7613809	-0.0532512271002673	66.7026017394174	0	0	0	0	0	0	
97046023.0115059	-0.0515742272947253	65.8192555815047	0	0	0	0	0	0	
98046523.261631	-0.0538598604673996	64.9612751161185	0	0	0	0	0	0	
99047023.511756	-0.0519915110228328	64.0952200043024	0	0	0	0	0	0	
100047523.761881	-0.050998838635418	63.2482604117911	0	0	0	0	0	0	
101048024.012006	-0.0493180513192061	62.3896924413762	0	0	0	0	0	0	
102048524.262131	-0.0423300071396349	61.5543908371815	0	0	0	0	0	0	
103049024.512256	-0.0464585240729506	60.7135777348897	0	0	0	0	0	0	
104049524.762381	-0.0436010640539773	59.8793062523375	0	0	0	0	0	0	
105050025.012506	-0.0428358886958271	59.0248820003999	0	0	0	0	0	0	
106050525.262632	-0.0434035577027496	58.1958153042555	0	0	0	0	0	0	
107051025.512757	-0.0425233968047481	57.3884549139957	0	0	0	0	0	0	
108051525.762882	-0.0426767089499034	56.5564674626029	0	0	0	0	0	0	
109052026.013007	-0.0424787831334403	55.7375765103094	0	0	0	0	0	0	
110052526.263132	-0.0436450178732449	54.9343838854911	0	0	0	0	0	0	
111053026.513257	-0.0430375341294456	54.1288525165051	0	0	0	0	0	0	
112053526.763382	-0.0407009526591574	53.3116595120649	0	0	0	0	0	0	
113054027.013507	-0.0399141269675658	52.5125762241893	0	0	0	0	0	0	
114054527.263632	-0.0402759544347333	51.730090046936	0	0	0	0	0	0	
115055027.513757	-0.039664629151763	50.9518578881824	0	0	0	0	0	0	
116055527.763882	-0.040408998909679	50.1705984200002	0	0	0	0	0	0	
117056028.014007	-0.0383132913409679	49.3847283802317	0	0	0	0	0	0	
118056528.264132	-0.0380958370931946	48.6316354512593	0	0	0	0	0	0	
119057028.514257	-0.0389196945384597	47.8529327390736	0	0	0	0	0	0	
120057528.764382	-0.0334516594348326	47.0932080642011	0	0	0	0	0	0	
121058029.014507	-0.03648062439021	46.3275705352583	0	0	0	0	0	0	
122058529.264633	-0.0389067041187036	45.593371780784	0	0	0	0	0	0	
123059029.514758	-0.0389737834403091	44.814840805477	0	0	0	0	0	0	
124059529.764883	-0.0416368745325435	44.0558880133502	0	0	0	0	0	0	
125060030.015008	-0.0427663594694075	43.3108959218122	0	0	0	0	0	0	
126060530.265133	-0.0438099334542542	42.5673230516161	0	0	0	0	0	0	
127061030.515258	-0.0480319577430228	41.8036966470447	0	0	0	0	0	0	
128061530.765383	-0.0525012617374146	41.0439299968245	0	0	0	0	0	0	
129062031.015508	-0.0555832558874649	40.2680465254182	0	0	0	0	0	0	
130062531.265633	-0.0541554336167245	39.5383337942608	0	0	0	0	0	0	
131063031.515758	-0.0572295584801188	38.7805600432573	0	0	0	0	0	0	
132063531.765883	-0.058514762078517	38.0377776180868	0	0	0	0	0	0	
133064032.016008	-0.0601059692876428	37.307958959193	0	0	0	0	0	0	
134064532.266133	-0.0571933698906156	36.5577929086972	0	0	0	0	0	0	
135065032.516258	-0.0602905417753349	35.8164491303549	0	0	0	0	0	0	
136065532.766383	-0.0602933982836865	35.0807079200583	0	0	0	0	0	0	
137066033.016508	-0.061225398029517	34.3409514583602	0	0	0	0	0	0	
138066533.266634	-0.0590355758144976	33.6384359285674	0	0	0	0	0	0	
139067033.516759	-0.059777486395773	32.8897218615198	0	0	0	0	0	0	
140067533.766884	-0.0592730595010284	32.1565073276224	0	0	0	0	0	0	
141068034.017009	-0.059327584029999	31.4266132596338	0	0	0	0	0	0	
142068534.267134	-0.0589828813018092	30.7068564060389	0	0	0	0	0	0	
143069034.517259	-0.0587738808388221	29.9920771734132	0	0	0	0	0	0	
144069534.767384	-0.0606659656106164	29.2603749071762	0	0	0	0	0	0	
145070035.017509	-0.0635715397330051	28.5368189698456	0	0	0	0	0	0	
146070535.267634	-0.0635708395894913	27.823491801897	0	0	0	0	0	0	
147071035.517759	-0.0656409442640294	27.1111442183144	0	0	0	0	0	0	
148071535.767884	-0.0668462691704832	26.401199098185	0	0	0	0	0	0	
149072036.018009	-0.0669224605785497	25.671089809261	0	0	0	0	0	0	
150072536.268134	-0.0704407935389954	24.9772908576345	0	0	0	0	0	0	
151073036.518259	-0.069890119277511	24.2551649147143	0	0	0	0	0	0	
152073536.768384	-0.0698545121927907	23.5466321677093	0	0	0	0	0	0	
153074037.018509	-0.0705691608413505	22.8220376555892	0	0	0	0	0	0	
154074537.268634	-0.0746510487423352	22.120943374482	0	0	0	0	0	0	
155075037.518759	-0.0748993018946901	21.4181571399205	0	0	0	0	0	0	
156075537.768884	-0.0750803176086034	20.709286126415	0	0	0	0	0	0	
157076038.01901	-0.07834923330162	20.0041866396222	0	0	0	0	0	0	
158076538.269135	-0.0811928900743621	19.2934989175895	0	0	0	0	0	0	
159077038.51926	-0.0851330419163117	18.5980562388779	0	0	0	0	0	0	
160077538.769385	-0.0905147385494736	17.8841618786298	0	0	0	0	0	0	
161078039.01951	-0.0917976908568821	17.172100213373	0	0	0	0	0	0	
162078539.269635	-0.0997790702100993	16.4574365216605	0	0	0	0	0	0	
163079039.51976	-0.103239845021866	15.7572553572205	0	0	0	0	0	0	
164079539.769885	-0.108839381929478	15.0272045830932	0	0	0	0	0	0	
165080040.02001	-0.114913953475102	14.3078608486522	0	0	0	0	0	0	
166080540.270135	-0.119232557260755	13.6032742602805	0	0	0	0	0	0	
167081040.52026	-0.125077854592597	12.8790261109055	0	0	0	0	0	0	
168081540.770385	-0.13190388494756	12.1526751515698	0	0	0	0	0	0	
169082041.02051	-0.137692894626536	11.4317704714162	0	0	0	0	0	0	
170082541.270635	-0.143196375284449	10.7076893841521	0	0	0	0	0	0	
171083041.52076	-0.145893346363039	9.99206871818874	0	0	0	0	0	0	
172083541.770885	-0.152540354718784	9.26804587253944	0	0	0	0	0	0	
173084042.02101	-0.157303519845178	8.54180940462484	0	0	0	0	0	0	
174084542.271135	-0.164469942835565	7.82302588457529	0	0	0	0	0	0	
175085042.52126	-0.170662383389165	7.1015955268231	0	0	0	0	0	0	
176085542.771385	-0.175535444729533	6.37325992578668	0	0	0	0	0	0	
177086043.021511	-0.182951336216699	5.64135562486616	0	0	0	0	0	0	
178086543.271636	-0.188757242326411	4.92145133046955	0	0	0	0	0	0	
179087043.521761	-0.19610323075038	4.18912428239877	0	0	0	0	0	0	
180087543.771886	-0.206385500700863	3.44565121317988	0	0	0	0	0	0	
181088044.022011	-0.20879356074795	2.71826531855209	0	0	0	0	0	0	
182088544.272136	-0.217807064598118	1.96838023967063	0	0	0	0	0	0	
183089044.522261	-0.22676524846582	1.23792333385711	0	0	0	0	0	0	
184089544.772386	-0.237867040303809	0.487045766520832	0	0	0	0	0	0	
185090045.022511	-0.247497328916184	-0.266698758641793	0	0	0	0	0	0	
186090545.272636	-0.258599272440168	-1.00336144251199	0	0	0	0	0	0	
187091045.522761	-0.268290956873476	-1.75657778057597	0	0	0	0	0	0	
188091545.772886	-0.278626282000361	-2.52853289764698	0	0	0	0	0	0	
189092046.023011	-0.291621844921734	-3.27458454817912	0	0	0	0	0	0	
190092546.273136	-0.301339430670591	-4.0443280954144	0	0	0	0	0	0	
191093046.523261	-0.31383518774424	-4.81829561717967	0	0	0	0	0	0	
192093546.773386	-0.331387525067396	-5.61377725398289	0	0	0	0	0	0	
193094047.023511	-0.349264817531692	-6.37761445157014	0	0	0	0	0	0	
194094547.273636	-0.366435472469169	-7.14955872648135	0	0	0	0	0	0	
195095047.523761	-0.382104283011769	-7.9402176876141	0	0	0	0	0	0	
196095547.773886	-0.400102750463772	-8.72316570192267	0	0	0	0	0	0	
197096048.024012	-0.416438236317564	-9.5227416035789	0	0	0	0	0	0	
198096548.274137	-0.436201246055753	-10.3270130897229	0	0	0	0	0	0	
199097048.524262	-0.456096313677195	-11.1738862433346	0	0	0	0	0	0	
200097548.774387	-0.481748469451167	-11.9760990430151	0	0	0	0	0	0	
201098049.024512	-0.507378163864653	-12.8022252337164	0	0	0	0	0	0	
202098549.274637	-0.532077405922205	-13.6391513870913	0	0	0	0	0	0	
203099049.524762	-0.559430707548493	-14.431680073523	0	0	0	0	0	0	
204099549.774887	-0.584777498186871	-15.2510208554106	0	0	0	0	0	0	
205100050.025012	-0.609039864744123	-16.0788597137196	0	0	0	0	0	0	
206100550.275137	-0.635374337423637	-16.9799885369877	0	0	0	0	0	0	
207101050.525262	-0.670197690081967	-17.8356025564086	0	0	0	0	0	0	
208101550.775387	-0.708289618641036	-18.6757174228726	0	0	0	0	0	0	
209102051.025512	-0.738698246753534	-19.5408915270009	0	0	0	0	0	0	
210102551.275637	-0.77558591580872	-20.4143918265566	0	0	0	0	0	0	
211103051.525762	-0.819359808398097	-21.2387625181272	0	0	0	0	0	0	
212103551.775887	-0.852395214672763	-22.072063281293	0	0	0	0	0	0	
213104052.026012	-0.882528622079339	-22.9693371254659	0	0	0	0	0	0	
214104552.276137	-0.928134143407007	-23.9124295665074	0	0	0	0	0	0	
215105052.526262	-0.976720840873179	-24.7883308712043	0	0	0	0	0	0	
216105552.776387	-1.02412225442257	-25.6776791506457	0	0	0	0	0	0	
217106053.026513	-1.08334597710069	-26.5895184938669	0	0	0	0	0	0	
218106553.276638	-1.14044542167751	-27.4489431893808	0	0	0	0	0	0	
219107053.526763	-1.19604164402603	-28.3020335952572	0	0	0	0	0	0	
220107553.776888	-1.25461496583941	-29.19851080788	0	0	0	0	0	0	
221108054.027013	-1.3237723641038	-30.0722304513115	0	0	0	0	0	0	
222108554.277138	-1.39344556273383	-30.9430570620293	0	0	0	0	0	0	
223109054.527263	-1.46819647096509	-31.7527517162422	0	0	0	0	0	0	
224109554.777388	-1.54410182093745	-32.6399750191383	0	0	0	0	0	0	
225110055.027513	-1.64590705873779	-33.3927935614779	0	0	0	0	0	0	
226110555.277638	-1.71872038401198	-33.95942727348	0	0	0	0	0	0	
227111055.527763	-1.77819497687159	-34.6761631114614	0	0	0	0	0	0	
228111555.777888	-1.83543038529651	-35.4114196654887	0	0	0	0	0	0	
229112056.028013	-1.89992702754577	-36.304047589457	0	0	0	0	0	0	
230112556.278138	-1.97959595381551	-37.0687014014579	0	0	0	0	0	0	
231113056.528263	-2.04057171235811	-37.9396423700409	0	0	0	0	0	0	
232113556.778388	-2.13250440537482	-38.8498760577506	0	0	0	0	0	0	
233114057.028513	-2.22728245576709	-39.7670870328281	0	0	0	0	0	0	
234114557.278638	-2.34428848220857	-40.5764126912156	0	0	0	0	0	0	
235115057.528763	-2.44839336240056	-41.2466479653172	0	0	0	0	0	0	
236115557.778888	-2.5444952107303	-41.9677303605734	0	0	0	0	0	0	
237116058.029014	-2.63764220439622	-42.668418714362	0	0	0	0	0	0	
238116558.279139	-2.72690774863526	-43.5100050573066	0	0	0	0	0	0	
239117058.529264	-2.84977467418367	-44.2336249528494	0	0	0	0	0	0	
240117558.779389	-2.96400842668531	-44.9432082635033	0	0	0	0	0	0	
241118059.029514	-3.07570298672449	-45.6569232387041	0	0	0	0	0	0	
242118559.279639	-3.21343301904458	-46.3986464156756	0	0	0	0	0	0	
243119059.529764	-3.3468050559482	-46.9000177714005	0	0	0	0	0	0	
244119559.779889	-3.47123748339791	-47.3420690937893	0	0	0	0	0	0	
245120060.030014	-3.57962612270694	-47.752317394375	0	0	0	0	0	0	
246120560.280139	-3.67152062670692	-48.2640577272802	0	0	0	0	0	0	
247121060.530264	-3.78066092240218	-48.9000218002608	0	0	0	0	0	0	
248121560.780389	-3.90996647039854	-49.483934226106	0	0	0	0	0	0	
249122061.030514	-4.05350579372791	-49.9508420459173	0	0	0	0	0	0	
250122561.280639	-4.16460170943959	-50.2341503162843	0	0	0	0	0	0	
251123061.530764	-4.28952789338899	-50.8095655179538	0	0	0	0	0	0	
252123561.780889	-4.43957452186632	-50.901640284476	0	0	0	0	0	0	
253124062.031014	-4.51719237379481	-51.0646172872777	0	0	0	0	0	0	
254124562.281139	-4.59855384926213	-51.4718524786172	0	0	0	0	0	0	
255125062.531264	-4.69901884397993	-51.8336936023609	0	0	0	0	0	0	
256125562.78139	-4.80420994265205	-52.343206437105	0	0	0	0	0	0	
257126063.031515	-4.93597618834135	-52.5005048543022	0	0	0	0	0	0	
258126563.28164	-5.01850361324282	-52.6811279848365	0	0	0	0	0	0	
259127063.531765	-5.11429367958865	-53.0876505278389	0	0	0	0	0	0	
260127563.78189	-5.24129010308686	-53.3043505034492	0	0	0	0	0	0	
261128064.032015	-5.32321160406714	-53.3437936155812	0	0	0	0	0	0	
262128564.28214	-5.40340114731484	-53.4866222153249	0	0	0	0	0	0	
263129064.532265	-5.46573906356473	-53.8136223650215	0	0	0	0	0	0	
264129564.78239	-5.56074002748367	-54.0672637547713	0	0	0	0	0	0	
265130065.032515	-5.63576098597314	-54.2427883697965	0	0	0	0	0	0	
266130565.28264	-5.69538821745405	-54.5874991437953	0	0	0	0	0	0	
267131065.532765	-5.80805232671378	-55.1239010038628	0	0	0	0	0	0	
268131565.78289	-5.91303838506164	-55.1963559465007	0	0	0	0	0	0	
269132066.033015	-5.98484213998918	-55.3729877620345	0	0	0	0	0	0	
270132566.28314	-6.05581319643463	-55.6926994700152	0	0	0	0	0	0	
271133066.533265	-6.13523686753775	-55.7443673016653	0	0	0	0	0	0	
272133566.78339	-6.16633859995824	-56.0797469474216	0	0	0	0	0	0	
273134067.033515	-6.22338313236328	-56.6740092468479	0	0	0	0	0	0	
274134567.28364	-6.29181067295281	-57.1620192372859	0	0	0	0	0	0	
275135067.533765	-6.39491160341019	-57.7516941317662	0	0	0	0	0	0	
276135567.783891	-6.51830591675315	-58.0972956560909	0	0	0	0	0	0	
277136068.034016	-6.60900497672658	-58.2786999777403	0	0	0	0	0	0	
278136568.284141	-6.67683343730467	-58.4781241908685	0	0	0	0	0	0	
279137068.534266	-6.70281019511282	-58.9253509528399	0	0	0	0	0	0	
280137568.784391	-6.79394206783506	-59.3667211730978	0	0	0	0	0	0	
281138069.034516	-6.84866709595879	-59.9204263439758	0	0	0	0	0	0	
282138569.284641	-6.9283100193593	-60.6402614839575	0	0	0	0	0	0	
283139069.534766	-7.04400551494246	-61.4444691270906	0	0	0	0	0	0	
284139569.784891	-7.20853107220999	-61.7664954243117	0	0	0	0	0	0	
285140070.035016	-7.3195179678137	-61.9151133905426	0	0	0	0	0	0	
286140570.285141	-7.3780437484112	-62.1285008295204	0	0	0	0	0	0	
287141070.535266	-7.42624165842533	-62.7320175968561	0	0	0	0	0	0	
288141570.785391	-7.53835874894864	-63.3422492434142	0	0	0	0	0	0	
289142071.035516	-7.6439809630055	-63.8490447757612	0	0	0	0	0	0	
290142571.285641	-7.76545303311067	-64.5565934410777	0	0	0	0	0	0	
291143071.535766	-7.92280907352669	-65.1007570384395	0	0	0	0	0	0	
292143571.785891	-8.07927643261755	-65.3729291938926	0	0	0	0	0	0	
293144072.036016	-8.18231157552028	-65.4114100491552	0	0	0	0	0	0	
294144572.286141	-8.29930650326503	-65.9645718616603	0	0	0	0	0	0	
295145072.536267	-8.46239248037098	-66.1671429781113	0	0	0	0	0	0	
