!Keysight Technologies N9923A: A.08.09
!Date: Wednesday, 01 August 2018 08:18:31
!Timezone: (GMT+08:00) Kuala Lumpur, Singapore
!Model: N9923A
!Serial: MY52412143
!GPS Latitude: 
!GPS Longitude: 
!GPS TimeStamp: 0001-01-01 00:00:00Z
!GPS Seconds Since Last Read: 0
!CHECKSUM:0925983684
!Correction: S11(ON U)S21()S12()S22()
!S2P File: Measurements:S11,S21,S12,S22:
# Hz S DB R 50
5000000	0.0389576310517936	172.826526002847	0	0	0	0	0	0	
6000500.25012506	0.0341095426329887	171.431775288458	0	0	0	0	0	0	
7001000.50025013	0.0246502855978251	170.036914579797	0	0	0	0	0	0	
8001500.75037519	0.0145879615652553	168.620621065803	0	0	0	0	0	0	
9002001.00050025	0.00993796248578759	167.221110096584	0	0	0	0	0	0	
10002501.2506253	0.00111743208905713	165.818530389259	0	0	0	0	0	0	
11003001.5007504	-0.00660577889340163	164.418516544634	0	0	0	0	0	0	
12003501.7508754	-0.0121287405437857	163.01682675682	0	0	0	0	0	0	
13004002.0010005	-0.0176419338047187	161.609312343721	0	0	0	0	0	0	
14004502.2511256	-0.0228709187849277	160.203837894094	0	0	0	0	0	0	
15005002.5012506	-0.0259675848565413	158.821852954737	0	0	0	0	0	0	
16005502.7513757	-0.0292742503571096	157.417236533069	0	0	0	0	0	0	
17006003.0015007	-0.0252110371582749	156.019343393737	0	0	0	0	0	0	
18006503.2516258	-0.0266458793441434	154.64186188306	0	0	0	0	0	0	
19007003.5017509	-0.02559590754212	153.248594586679	0	0	0	0	0	0	
20007503.7518759	-0.0228249661130941	151.874993427543	0	0	0	0	0	0	
21008004.002001	-0.0179343807282601	150.490177758812	0	0	0	0	0	0	
22008504.2521261	-0.0118034320839506	149.119397260531	0	0	0	0	0	0	
23009004.5022511	-0.00467169658488374	147.753370519482	0	0	0	0	0	0	
24009504.7523762	3.35995041261995E-05	146.40119248073	0	0	0	0	0	0	
25010005.0025012	0.00893916490177215	145.081696860332	0	0	0	0	0	0	
26010505.2526263	0.0106390472892192	143.715474911582	0	0	0	0	0	0	
27011005.5027514	0.0196005358422001	142.378190021656	0	0	0	0	0	0	
28011505.7528764	0.0239447608070442	141.059414287955	0	0	0	0	0	0	
29012006.0030015	0.0282445253918818	139.719433468264	0	0	0	0	0	0	
30012506.2531265	0.0306842218002307	138.409074861916	0	0	0	0	0	0	
31013006.5032516	0.0336970746281828	137.085486754436	0	0	0	0	0	0	
32013506.7533767	0.0308455849644246	135.797445496518	0	0	0	0	0	0	
33014007.0035017	0.0301635854307142	134.496041145987	0	0	0	0	0	0	
34014507.2536268	0.0241505970827391	133.217308277211	0	0	0	0	0	0	
35015007.5037519	0.0211927543577551	131.945393238718	0	0	0	0	0	0	
36015507.7538769	0.0136518720935816	130.666643936744	0	0	0	0	0	0	
37016008.004002	0.00726457505976243	129.396783711496	0	0	0	0	0	0	
38016508.2541271	-0.0013129409899948	128.166634551657	0	0	0	0	0	0	
39017008.5042521	-0.011215916211197	126.922603241947	0	0	0	0	0	0	
40017508.7543772	-0.0186374369268877	125.669778676788	0	0	0	0	0	0	
41018009.0045023	-0.0244800965351626	124.431211981393	0	0	0	0	0	0	
42018509.2546273	-0.0322218903308158	123.222015447619	0	0	0	0	0	0	
43019009.5047524	-0.0398346928711478	122.000845253567	0	0	0	0	0	0	
44019509.7548774	-0.0438379795739243	120.797433073016	0	0	0	0	0	0	
45020010.0050025	-0.0498102409544154	119.611896468663	0	0	0	0	0	0	
46020510.2551276	-0.0540537837098779	118.412685360014	0	0	0	0	0	0	
47021010.5052526	-0.0545305968604849	117.215514989033	0	0	0	0	0	0	
48021510.7553777	-0.0550354542057745	116.026898893373	0	0	0	0	0	0	
49022011.0055028	-0.0581281724088828	114.862629987676	0	0	0	0	0	0	
50022511.2556278	-0.0583666336881534	113.653424144703	0	0	0	0	0	0	
51023011.5057529	-0.0586199697104162	112.478551985152	0	0	0	0	0	0	
52023511.755878	-0.0552393620524249	111.332651265917	0	0	0	0	0	0	
53024012.006003	-0.0529208187929594	110.155823047174	0	0	0	0	0	0	
54024512.2561281	-0.0507659144523515	108.988377588606	0	0	0	0	0	0	
55025012.5062532	-0.0460732253969522	107.822249329229	0	0	0	0	0	0	
56025512.7563782	-0.0430180400768857	106.682315699828	0	0	0	0	0	0	
57026013.0065033	-0.0352812269141416	105.538274446164	0	0	0	0	0	0	
58026513.2566284	-0.0290821258104773	104.43140361936	0	0	0	0	0	0	
59027013.5067534	-0.0254989470654872	103.325287956234	0	0	0	0	0	0	
60027513.7568785	-0.0143861435580665	102.231641644254	0	0	0	0	0	0	
61028014.0070036	-0.00911767333338556	101.115348086827	0	0	0	0	0	0	
62028514.2571286	-0.000745545098026171	100.066756481679	0	0	0	0	0	0	
63029014.5072537	0.00334618960794443	98.985377125414	0	0	0	0	0	0	
64029514.7573788	0.0108189164646957	97.9213024808484	0	0	0	0	0	0	
65030015.0075038	0.0144795162879997	96.8829363293913	0	0	0	0	0	0	
66030515.2576289	0.0175002346662157	95.8635645766365	0	0	0	0	0	0	
67031015.507754	0.0188463040215137	94.8093270647935	0	0	0	0	0	0	
68031515.757879	0.0154873675713453	93.7879500673301	0	0	0	0	0	0	
69032016.0080041	0.0119980353104454	92.7786672091787	0	0	0	0	0	0	
70032516.2581291	0.0133418472728615	91.7600787442592	0	0	0	0	0	0	
71033016.5082542	0.00593341432648712	90.7397936755019	0	0	0	0	0	0	
72033516.7583793	0.000283166782875136	89.7258672052809	0	0	0	0	0	0	
73034017.0085043	-0.00493144303169875	88.7278640809663	0	0	0	0	0	0	
74034517.2586294	-0.00916339000153914	87.738888790768	0	0	0	0	0	0	
75035017.5087545	-0.0138084414862225	86.757829093701	0	0	0	0	0	0	
76035517.7588795	-0.0186072590448419	85.758922631898	0	0	0	0	0	0	
77036018.0090046	-0.02481796907326	84.7581071923059	0	0	0	0	0	0	
78036518.2591297	-0.0287008182974155	83.7996901753826	0	0	0	0	0	0	
79037018.5092547	-0.0309559256421739	82.8111495498894	0	0	0	0	0	0	
80037518.7593798	-0.0359654371277632	81.8247626873664	0	0	0	0	0	0	
81038019.0095049	-0.0400393460776032	80.8592886732852	0	0	0	0	0	0	
82038519.2596299	-0.0397501238741312	79.9097759241422	0	0	0	0	0	0	
83039019.509755	-0.042409274265249	78.9459214735258	0	0	0	0	0	0	
84039519.7598801	-0.0427719577864753	78.0015961411415	0	0	0	0	0	0	
85040020.0100051	-0.0427909423160816	77.0516832108662	0	0	0	0	0	0	
86040520.2601302	-0.0437445506450703	76.1181230798328	0	0	0	0	0	0	
87041020.5102553	-0.0420860204111874	75.1872508296128	0	0	0	0	0	0	
88041520.7603803	-0.0422914190883423	74.2426899534322	0	0	0	0	0	0	
89042021.0105054	-0.0401720917514327	73.3271537929523	0	0	0	0	0	0	
90042521.2606305	-0.035787446039815	72.414287860244	0	0	0	0	0	0	
91043021.5107555	-0.0352498199075501	71.5111658311587	0	0	0	0	0	0	
92043521.7608806	-0.0297055524401019	70.5902756279067	0	0	0	0	0	0	
93044022.0110057	-0.0231387789335954	69.682090927524	0	0	0	0	0	0	
94044522.2611307	-0.017864686261823	68.8209161291855	0	0	0	0	0	0	
95045022.5112558	-0.0135137497000559	67.9519369528854	0	0	0	0	0	0	
96045522.7613809	-0.0058444801581942	67.0852492482099	0	0	0	0	0	0	
97046023.0115059	0.00191988026431753	66.2304941366635	0	0	0	0	0	0	
98046523.261631	0.00601097092807654	65.3864600182533	0	0	0	0	0	0	
99047023.511756	0.0101855181306815	64.5319133901791	0	0	0	0	0	0	
100047523.761881	0.015488990013194	63.7273289111986	0	0	0	0	0	0	
101048024.012006	0.0154012224607239	62.8974981692037	0	0	0	0	0	0	
102048524.262131	0.0183368777500873	62.0783121857998	0	0	0	0	0	0	
103049024.512256	0.0196246623930542	61.2642320406176	0	0	0	0	0	0	
104049524.762381	0.0175709668964822	60.4603949262007	0	0	0	0	0	0	
105050025.012506	0.0155489941605992	59.6334451208597	0	0	0	0	0	0	
106050525.262632	0.0141553499571834	58.8323283541436	0	0	0	0	0	0	
107051025.512757	0.00717060803835563	58.0161617390547	0	0	0	0	0	0	
108051525.762882	0.0033377193425184	57.2069431327064	0	0	0	0	0	0	
109052026.013007	-0.00372493059957287	56.3973546305269	0	0	0	0	0	0	
110052526.263132	-0.00882873296615697	55.5970945568595	0	0	0	0	0	0	
111053026.513257	-0.0154904234496361	54.7778039591763	0	0	0	0	0	0	
112053526.763382	-0.0204797245565469	53.9709844823347	0	0	0	0	0	0	
113054027.013507	-0.0251423316898225	53.1584044055851	0	0	0	0	0	0	
114054527.263632	-0.0319286913357788	52.3534565004318	0	0	0	0	0	0	
115055027.513757	-0.0336047232125573	51.5463357359792	0	0	0	0	0	0	
116055527.763882	-0.0378436724665035	50.7587476303533	0	0	0	0	0	0	
117056028.014007	-0.0400163480901272	49.9469034985567	0	0	0	0	0	0	
118056528.264132	-0.0414838014818117	49.1567603497155	0	0	0	0	0	0	
119057028.514257	-0.0422400707796693	48.349727701972	0	0	0	0	0	0	
120057528.764382	-0.0411368362519603	47.5650039147654	0	0	0	0	0	0	
121058029.014507	-0.0363435786104353	46.7674076189642	0	0	0	0	0	0	
122058529.264633	-0.0374796045384075	45.999490488297	0	0	0	0	0	0	
123059029.514758	-0.0331071163021655	45.2177923449164	0	0	0	0	0	0	
124059529.764883	-0.0320321723105256	44.428411110732	0	0	0	0	0	0	
125060030.015008	-0.029958719301118	43.6520384756042	0	0	0	0	0	0	
126060530.265133	-0.0256571565379661	42.8877482925439	0	0	0	0	0	0	
127061030.515258	-0.0228914842403467	42.129916276007	0	0	0	0	0	0	
128061530.765383	-0.0171976467907195	41.3666947448374	0	0	0	0	0	0	
129062031.015508	-0.0122920956949632	40.617574312537	0	0	0	0	0	0	
130062531.265633	-0.00906601747006712	39.8776277806798	0	0	0	0	0	0	
131063031.515758	-0.000825115473179226	39.1416472346638	0	0	0	0	0	0	
132063531.765883	0.00243539880882978	38.4259857883756	0	0	0	0	0	0	
133064032.016008	0.00847838777444228	37.7097588489666	0	0	0	0	0	0	
134064532.266133	0.0117981953134688	36.976161677091	0	0	0	0	0	0	
135065032.516258	0.0162231251247767	36.2789477462361	0	0	0	0	0	0	
136065532.766383	0.0192476277689541	35.5722298906525	0	0	0	0	0	0	
137066033.016508	0.0206299361783588	34.8876768708511	0	0	0	0	0	0	
138066533.266634	0.0222179003001536	34.180657507861	0	0	0	0	0	0	
139067033.516759	0.0217254913176764	33.4859571438437	0	0	0	0	0	0	
140067533.766884	0.0199790728973299	32.7932878970518	0	0	0	0	0	0	
141068034.017009	0.0150805826420712	32.0960478281659	0	0	0	0	0	0	
142068534.267134	0.0114532927474374	31.3992858665525	0	0	0	0	0	0	
143069034.517259	0.0046311433249996	30.7083939781761	0	0	0	0	0	0	
144069534.767384	-0.000212267326371533	30.0063812234817	0	0	0	0	0	0	
145070035.017509	-0.00697020771860481	29.3078979629639	0	0	0	0	0	0	
146070535.267634	-0.0186810767943456	28.6054156922982	0	0	0	0	0	0	
147071035.517759	-0.0259133239549285	27.912269023898	0	0	0	0	0	0	
148071535.767884	-0.0336617077982294	27.1863860760468	0	0	0	0	0	0	
149072036.018009	-0.0437466857718319	26.4781173164305	0	0	0	0	0	0	
150072536.268134	-0.0517777026637863	25.7663576938534	0	0	0	0	0	0	
151073036.518259	-0.0581885270031269	25.0499473503507	0	0	0	0	0	0	
152073536.768384	-0.064927616852519	24.3334079592726	0	0	0	0	0	0	
153074037.018509	-0.069101914497047	23.6151501253802	0	0	0	0	0	0	
154074537.268634	-0.0728654638976408	22.9007215985125	0	0	0	0	0	0	
155075037.518759	-0.0774841916847999	22.1665959684467	0	0	0	0	0	0	
156075537.768884	-0.0787449902307093	21.4568234570125	0	0	0	0	0	0	
157076038.01901	-0.0816886936382948	20.731222159613	0	0	0	0	0	0	
158076538.269135	-0.0819286378964813	20.0115984384374	0	0	0	0	0	0	
159077038.51926	-0.0850898507891227	19.2998308371296	0	0	0	0	0	0	
160077538.769385	-0.082683848106764	18.5727346333683	0	0	0	0	0	0	
161078039.01951	-0.0864751934845901	17.8428598623522	0	0	0	0	0	0	
162078539.269635	-0.0822654189967159	17.1447569681699	0	0	0	0	0	0	
163079039.51976	-0.0825169713717011	16.4301594976645	0	0	0	0	0	0	
164079539.769885	-0.0809487987358988	15.72758802478	0	0	0	0	0	0	
165080040.02001	-0.0796638963916688	15.0038670919943	0	0	0	0	0	0	
166080540.270135	-0.0753830175797073	14.299540656169	0	0	0	0	0	0	
167081040.52026	-0.0733260417391209	13.5927538609427	0	0	0	0	0	0	
168081540.770385	-0.0730974974556837	12.9039816478032	0	0	0	0	0	0	
169082041.02051	-0.0719123233818355	12.1962579308746	0	0	0	0	0	0	
170082541.270635	-0.0713303506530727	11.5034125892541	0	0	0	0	0	0	
171083041.52076	-0.0734488692774519	10.8060051957764	0	0	0	0	0	0	
172083541.770885	-0.0746958379832316	10.0970427553518	0	0	0	0	0	0	
173084042.02101	-0.0781160917749138	9.39822908371498	0	0	0	0	0	0	
174084542.271135	-0.0824969718556025	8.68716232350884	0	0	0	0	0	0	
175085042.52126	-0.0885632593453834	7.97914106326901	0	0	0	0	0	0	
176085542.771385	-0.095889332561158	7.27869585125997	0	0	0	0	0	0	
177086043.021511	-0.104316058520846	6.56803637120811	0	0	0	0	0	0	
178086543.271636	-0.115372009682281	5.85770844435849	0	0	0	0	0	0	
179087043.521761	-0.127681747849835	5.13693680391132	0	0	0	0	0	0	
180087543.771886	-0.143668306824309	4.41633188305278	0	0	0	0	0	0	
181088044.022011	-0.157515635513603	3.6952889772396	0	0	0	0	0	0	
182088544.272136	-0.171536623254323	2.94816303446629	0	0	0	0	0	0	
183089044.522261	-0.18890683117114	2.20594770260942	0	0	0	0	0	0	
184089544.772386	-0.204042814378361	1.48411389793633	0	0	0	0	0	0	
185090045.022511	-0.220333858338304	0.737984865435988	0	0	0	0	0	0	
186090545.272636	-0.234633883939037	-0.0245541204688084	0	0	0	0	0	0	
187091045.522761	-0.250328308189689	-0.812714447426733	0	0	0	0	0	0	
188091545.772886	-0.264065257927626	-1.57177024335257	0	0	0	0	0	0	
189092046.023011	-0.279412321059767	-2.36365181440537	0	0	0	0	0	0	
190092546.273136	-0.293441841156947	-3.15091334803589	0	0	0	0	0	0	
191093046.523261	-0.31097681216829	-3.9532962180212	0	0	0	0	0	0	
192093546.773386	-0.326166727975774	-4.75251991893418	0	0	0	0	0	0	
193094047.023511	-0.33876338951869	-5.55706774250727	0	0	0	0	0	0	
194094547.273636	-0.355158667251511	-6.35515618820757	0	0	0	0	0	0	
195095047.523761	-0.370690336752565	-7.15296031327953	0	0	0	0	0	0	
196095547.773886	-0.38508918857399	-7.96929363594297	0	0	0	0	0	0	
197096048.024012	-0.401355994834882	-8.75667437710144	0	0	0	0	0	0	
198096548.274137	-0.415333992534661	-9.56090678514996	0	0	0	0	0	0	
199097048.524262	-0.430446022063655	-10.3793839178168	0	0	0	0	0	0	
200097548.774387	-0.446480036449125	-11.133813676888	0	0	0	0	0	0	
201098049.024512	-0.462963591568188	-11.9635622567251	0	0	0	0	0	0	
202098549.274637	-0.478238321792233	-12.7408889948923	0	0	0	0	0	0	
203099049.524762	-0.497549760239754	-13.5455464006424	0	0	0	0	0	0	
204099549.774887	-0.51517328424774	-14.3546753728163	0	0	0	0	0	0	
205100050.025012	-0.535933125993216	-15.1698418624976	0	0	0	0	0	0	
206100550.275137	-0.560564711772914	-15.9792195950966	0	0	0	0	0	0	
207101050.525262	-0.584942898277135	-16.8020050217558	0	0	0	0	0	0	
208101550.775387	-0.615972279888165	-17.5959047599322	0	0	0	0	0	0	
209102051.025512	-0.644248894378533	-18.4177339454785	0	0	0	0	0	0	
210102551.275637	-0.677487279097803	-19.2474962470017	0	0	0	0	0	0	
211103051.525762	-0.713665332202924	-20.0834212763193	0	0	0	0	0	0	
212103551.775887	-0.758226020761986	-20.9219548372953	0	0	0	0	0	0	
213104052.026012	-0.80427405500524	-21.7684774022107	0	0	0	0	0	0	
214104552.276137	-0.855769600017898	-22.583253191744	0	0	0	0	0	0	
215105052.526262	-0.907466424996206	-23.4211252103897	0	0	0	0	0	0	
216105552.776387	-0.960716689040192	-24.2632963844419	0	0	0	0	0	0	
217106053.026513	-1.01935738404123	-25.1113665235256	0	0	0	0	0	0	
218106553.276638	-1.07907355178872	-25.9620065264929	0	0	0	0	0	0	
219107053.526763	-1.14317254296014	-26.7978905131573	0	0	0	0	0	0	
220107553.776888	-1.20608990788756	-27.650705832648	0	0	0	0	0	0	
221108054.027013	-1.27030004272188	-28.4991633512544	0	0	0	0	0	0	
222108554.277138	-1.33931363454765	-29.344256134511	0	0	0	0	0	0	
223109054.527263	-1.40313264011764	-30.2061655359896	0	0	0	0	0	0	
224109554.777388	-1.47918705615119	-31.1091673510245	0	0	0	0	0	0	
225110055.027513	-1.55620461296419	-31.9840606592758	0	0	0	0	0	0	
226110555.277638	-1.63371542889985	-32.8239805100593	0	0	0	0	0	0	
227111055.527763	-1.71001052386588	-33.7032135256321	0	0	0	0	0	0	
228111555.777888	-1.79166250867653	-34.5743787174065	0	0	0	0	0	0	
229112056.028013	-1.87383816546019	-35.4172062223254	0	0	0	0	0	0	
230112556.278138	-1.96009036508686	-36.2900344094114	0	0	0	0	0	0	
231113056.528263	-2.05251965018718	-37.1189693948485	0	0	0	0	0	0	
232113556.778388	-2.1457190172469	-37.8838870322402	0	0	0	0	0	0	
233114057.028513	-2.2348791923341	-38.6566138892162	0	0	0	0	0	0	
234114557.278638	-2.3297950260826	-39.4138248539403	0	0	0	0	0	0	
235115057.528763	-2.42999722650694	-40.1395161047481	0	0	0	0	0	0	
236115557.778888	-2.52349303410077	-40.7716629166927	0	0	0	0	0	0	
237116058.029014	-2.61294694563623	-41.4542402196718	0	0	0	0	0	0	
238116558.279139	-2.71157535948636	-42.0910795438937	0	0	0	0	0	0	
239117058.529264	-2.81118980397452	-42.6927960456134	0	0	0	0	0	0	
240117558.779389	-2.90953488620153	-43.3005479398584	0	0	0	0	0	0	
241118059.029514	-3.00388774494652	-43.8868536363772	0	0	0	0	0	0	
242118559.279639	-3.10828773325847	-44.4623440372893	0	0	0	0	0	0	
243119059.529764	-3.20967163122737	-45.0157031459892	0	0	0	0	0	0	
244119559.779889	-3.31963650035568	-45.5491779440911	0	0	0	0	0	0	
245120060.030014	-3.4311853940183	-46.1039428096337	0	0	0	0	0	0	
246120560.280139	-3.55728152811725	-46.5917072567851	0	0	0	0	0	0	
247121060.530264	-3.67697328409259	-47.0316894513772	0	0	0	0	0	0	
248121560.780389	-3.79378384006207	-47.3993420219129	0	0	0	0	0	0	
249122061.030514	-3.91868786846691	-47.8687547049163	0	0	0	0	0	0	
250122561.280639	-4.047104369746	-48.2585609558542	0	0	0	0	0	0	
251123061.530764	-4.17241162302485	-48.5818571924673	0	0	0	0	0	0	
252123561.780889	-4.29471279450646	-48.9444123942922	0	0	0	0	0	0	
253124062.031014	-4.42605328655462	-49.2527523543624	0	0	0	0	0	0	
254124562.281139	-4.54769829470028	-49.4842985308791	0	0	0	0	0	0	
255125062.531264	-4.65713957675252	-49.7052039371204	0	0	0	0	0	0	
256125562.78139	-4.76848200105585	-50.0248524247828	0	0	0	0	0	0	
257126063.031515	-4.88171749789478	-50.3274128506273	0	0	0	0	0	0	
258126563.28164	-4.99157084898946	-50.5759186592827	0	0	0	0	0	0	
259127063.531765	-5.10057603916769	-50.8187407428679	0	0	0	0	0	0	
260127563.78189	-5.1923720777853	-51.0205437338648	0	0	0	0	0	0	
261128064.032015	-5.27730520142659	-51.3641947876183	0	0	0	0	0	0	
262128564.28214	-5.37517150695645	-51.7676361532348	0	0	0	0	0	0	
263129064.532265	-5.47751942879902	-52.0406569532901	0	0	0	0	0	0	
264129564.78239	-5.56194024908359	-52.2695733637455	0	0	0	0	0	0	
265130065.032515	-5.64294761450606	-52.6873144077158	0	0	0	0	0	0	
266130565.28264	-5.74297859465219	-53.052519190805	0	0	0	0	0	0	
267131065.532765	-5.84208095542156	-53.3522629131226	0	0	0	0	0	0	
268131565.78289	-5.92746973102915	-53.5462067491137	0	0	0	0	0	0	
269132066.033015	-6.01028207319272	-53.7820327607279	0	0	0	0	0	0	
270132566.28314	-6.08706326462023	-54.0037718476291	0	0	0	0	0	0	
271133066.533265	-6.15518725030888	-54.2081647622526	0	0	0	0	0	0	
272133566.78339	-6.21718218297207	-54.4791587333182	0	0	0	0	0	0	
273134067.033515	-6.28524746440391	-54.6783086484284	0	0	0	0	0	0	
274134567.28364	-6.35505031987558	-54.8884460116873	0	0	0	0	0	0	
275135067.533765	-6.4041616259036	-54.9874453404336	0	0	0	0	0	0	
276135567.783891	-6.42956916025051	-55.3031553032258	0	0	0	0	0	0	
277136068.034016	-6.47590845221382	-55.7713108455692	0	0	0	0	0	0	
278136568.284141	-6.56226648184523	-56.1345453131241	0	0	0	0	0	0	
279137068.534266	-6.62424545195704	-56.4540422517933	0	0	0	0	0	0	
280137568.784391	-6.70192752829472	-56.8333034093527	0	0	0	0	0	0	
281138069.034516	-6.79243015101808	-57.1917798126998	0	0	0	0	0	0	
282138569.284641	-6.87808268210572	-57.5164640144509	0	0	0	0	0	0	
283139069.534766	-6.9682860047173	-57.9357788647187	0	0	0	0	0	0	
284139569.784891	-7.10093078995766	-58.325995157228	0	0	0	0	0	0	
285140070.035016	-7.23601654744725	-58.4476168308455	0	0	0	0	0	0	
286140570.285141	-7.35726615402585	-58.5050746392184	0	0	0	0	0	0	
287141070.535266	-7.44988703911576	-58.6308624639054	0	0	0	0	0	0	
288141570.785391	-7.56627905071224	-58.8035896448106	0	0	0	0	0	0	
289142071.035516	-7.66210953268101	-58.9273217913262	0	0	0	0	0	0	
290142571.285641	-7.77327953995982	-59.2111136460672	0	0	0	0	0	0	
291143071.535766	-7.87856486512864	-59.4261833988911	0	0	0	0	0	0	
292143571.785891	-7.99267438038436	-59.516690252067	0	0	0	0	0	0	
293144072.036016	-8.06797240852821	-59.7556634059018	0	0	0	0	0	0	
294144572.286141	-8.15469483573542	-60.2063391633017	0	0	0	0	0	0	
295145072.536267	-8.26461067699378	-60.7475626552302	0	0	0	0	0	0	
