!Keysight Technologies N9923A: A.08.09
!Date: Wednesday, 01 August 2018 08:10:12
!Timezone: (GMT+08:00) Kuala Lumpur, Singapore
!Model: N9923A
!Serial: MY52412143
!GPS Latitude: 
!GPS Longitude: 
!GPS TimeStamp: 0001-01-01 00:00:00Z
!GPS Seconds Since Last Read: 0
!CHECKSUM:1050662376
!Correction: S11(ON U)S21()S12()S22()
!S2P File: Measurements:S11,S21,S12,S22:
# Hz S DB R 50
5000000	0.0196983103543613	172.798464126599	0	0	0	0	0	0	
6000500.25012506	0.0179237308164361	171.386021741524	0	0	0	0	0	0	
7001000.50025013	0.0101714506387243	169.97094247221	0	0	0	0	0	0	
8001500.75037519	0.00449864446631035	168.565299246574	0	0	0	0	0	0	
9002001.00050025	0.00122079300732352	167.152542345937	0	0	0	0	0	0	
10002501.2506253	-0.00403582514660921	165.751449735864	0	0	0	0	0	0	
11003001.5007504	-0.00840442618371265	164.342934256097	0	0	0	0	0	0	
12003501.7508754	-0.0140622164209915	162.940748846058	0	0	0	0	0	0	
13004002.0010005	-0.0158940824714936	161.541579816734	0	0	0	0	0	0	
14004502.2511256	-0.0187148743254213	160.129230316371	0	0	0	0	0	0	
15005002.5012506	-0.0212589504900636	158.740867962128	0	0	0	0	0	0	
16005502.7513757	-0.0234036727874239	157.331637044767	0	0	0	0	0	0	
17006003.0015007	-0.0203262075719285	155.939374839109	0	0	0	0	0	0	
18006503.2516258	-0.0240828576113814	154.547723855609	0	0	0	0	0	0	
19007003.5017509	-0.0225322773074217	153.159512214895	0	0	0	0	0	0	
20007503.7518759	-0.0212096206698117	151.785059554466	0	0	0	0	0	0	
21008004.002001	-0.017930671930444	150.394537567028	0	0	0	0	0	0	
22008504.2521261	-0.0142968739901321	149.021645364727	0	0	0	0	0	0	
23009004.5022511	-0.010210281186055	147.651289993444	0	0	0	0	0	0	
24009504.7523762	-0.00922418985875502	146.290415436636	0	0	0	0	0	0	
25010005.0025012	-0.00226664486163042	144.949939658666	0	0	0	0	0	0	
26010505.2526263	-0.00238545478709612	143.576693640366	0	0	0	0	0	0	
27011005.5027514	0.000791700602421029	142.243780716634	0	0	0	0	0	0	
28011505.7528764	0.0027097977863181	140.907435403449	0	0	0	0	0	0	
29012006.0030015	0.0054459617540576	139.56249387147	0	0	0	0	0	0	
30012506.2531265	0.00777695361742714	138.261934623365	0	0	0	0	0	0	
31013006.5032516	0.00594911904949431	136.925461466625	0	0	0	0	0	0	
32013506.7533767	0.00520419084746115	135.63035192681	0	0	0	0	0	0	
33014007.0035017	0.00283496503673822	134.328238093353	0	0	0	0	0	0	
34014507.2536268	-0.0006878075347834	133.051982521231	0	0	0	0	0	0	
35015007.5037519	-0.00444204799992189	131.78362530591	0	0	0	0	0	0	
36015507.7538769	-0.0122495501847402	130.504352494905	0	0	0	0	0	0	
37016008.004002	-0.0171894495722946	129.226345716364	0	0	0	0	0	0	
38016508.2541271	-0.0234962214455622	127.998286200603	0	0	0	0	0	0	
39017008.5042521	-0.03039640466041	126.759201038453	0	0	0	0	0	0	
40017508.7543772	-0.0353999589984662	125.512580271604	0	0	0	0	0	0	
41018009.0045023	-0.0387592057600373	124.274227768941	0	0	0	0	0	0	
42018509.2546273	-0.0420025685152151	123.074412919995	0	0	0	0	0	0	
43019009.5047524	-0.046551301602854	121.852672750439	0	0	0	0	0	0	
44019509.7548774	-0.0485567931575743	120.671646292899	0	0	0	0	0	0	
45020010.0050025	-0.0528233831350997	119.478923840041	0	0	0	0	0	0	
46020510.2551276	-0.0535569709181887	118.276247332655	0	0	0	0	0	0	
47021010.5052526	-0.0530850683947715	117.094069739722	0	0	0	0	0	0	
48021510.7553777	-0.050701360712793	115.903035944761	0	0	0	0	0	0	
49022011.0055028	-0.051830712152919	114.740400068706	0	0	0	0	0	0	
50022511.2556278	-0.0519810322510572	113.545060620631	0	0	0	0	0	0	
51023011.5057529	-0.0528618406493465	112.372678591716	0	0	0	0	0	0	
52023511.755878	-0.050192292032971	111.229303437308	0	0	0	0	0	0	
53024012.006003	-0.0498977192102834	110.034863891661	0	0	0	0	0	0	
54024512.2561281	-0.048417662981929	108.869661224344	0	0	0	0	0	0	
55025012.5062532	-0.0442510320713271	107.694479218731	0	0	0	0	0	0	
56025512.7563782	-0.0439134430173074	106.548242620373	0	0	0	0	0	0	
57026013.0065033	-0.0407522551388917	105.405542341759	0	0	0	0	0	0	
58026513.2566284	-0.038966430875613	104.275304116749	0	0	0	0	0	0	
59027013.5067534	-0.0373799254909023	103.149033738124	0	0	0	0	0	0	
60027513.7568785	-0.0295268968078648	102.054306153942	0	0	0	0	0	0	
61028014.0070036	-0.0260380676493313	100.925245902906	0	0	0	0	0	0	
62028514.2571286	-0.0215539171073634	99.8466796891821	0	0	0	0	0	0	
63029014.5072537	-0.0203119120904951	98.7581891524766	0	0	0	0	0	0	
64029514.7573788	-0.0168833689169957	97.687230415688	0	0	0	0	0	0	
65030015.0075038	-0.0129599076740083	96.6331587656227	0	0	0	0	0	0	
66030515.2576289	-0.01316108342151	95.5746542460977	0	0	0	0	0	0	
67031015.507754	-0.0111563570812444	94.5140555807261	0	0	0	0	0	0	
68031515.757879	-0.0160538305382671	93.4894264737872	0	0	0	0	0	0	
69032016.0080041	-0.0199962361373229	92.4612639934594	0	0	0	0	0	0	
70032516.2581291	-0.01525645279414	91.4303992168654	0	0	0	0	0	0	
71033016.5082542	-0.0228440269974157	90.4016914362657	0	0	0	0	0	0	
72033516.7583793	-0.0257633088417564	89.3844143038423	0	0	0	0	0	0	
73034017.0085043	-0.0280731160198415	88.3849140080757	0	0	0	0	0	0	
74034517.2586294	-0.0302891065793261	87.3819345434279	0	0	0	0	0	0	
75035017.5087545	-0.0305575088411462	86.4002160412005	0	0	0	0	0	0	
76035517.7588795	-0.0337901530256174	85.3987827496913	0	0	0	0	0	0	
77036018.0090046	-0.0360394823730491	84.4073165496864	0	0	0	0	0	0	
78036518.2591297	-0.0366712019474141	83.4479172954178	0	0	0	0	0	0	
79037018.5092547	-0.0372352165723892	82.45343982889	0	0	0	0	0	0	
80037518.7593798	-0.0389466012617036	81.4860037173067	0	0	0	0	0	0	
81038019.0095049	-0.0400973535135739	80.5192418261399	0	0	0	0	0	0	
82038519.2596299	-0.0387709446396781	79.5844513057491	0	0	0	0	0	0	
83039019.509755	-0.0391416855904102	78.633783550769	0	0	0	0	0	0	
84039519.7598801	-0.0387157860747236	77.6901615017918	0	0	0	0	0	0	
85040020.0100051	-0.0384239414116983	76.7474338685294	0	0	0	0	0	0	
86040520.2601302	-0.0401831087650275	75.8180860641455	0	0	0	0	0	0	
87041020.5102553	-0.0379311924515874	74.8898309474243	0	0	0	0	0	0	
88041520.7603803	-0.0397025243094976	73.9523679162119	0	0	0	0	0	0	
89042021.0105054	-0.0392170531382959	73.0362079968273	0	0	0	0	0	0	
90042521.2606305	-0.0376027874936502	72.121297594606	0	0	0	0	0	0	
91043021.5107555	-0.0386782674806351	71.2102112882046	0	0	0	0	0	0	
92043521.7608806	-0.0367560191737602	70.2756511483121	0	0	0	0	0	0	
93044022.0110057	-0.033816303148033	69.3742359765071	0	0	0	0	0	0	
94044522.2611307	-0.0323336964311755	68.5095366242228	0	0	0	0	0	0	
95045022.5112558	-0.0289912560979771	67.6437897272355	0	0	0	0	0	0	
96045522.7613809	-0.0248688625870788	66.7394339393605	0	0	0	0	0	0	
97046023.0115059	-0.0193512536447106	65.857518925675	0	0	0	0	0	0	
98046523.261631	-0.0201568841358517	65.001863066133	0	0	0	0	0	0	
99047023.511756	-0.0153385048204973	64.1278958359133	0	0	0	0	0	0	
100047523.761881	-0.012927284770658	63.3062562963415	0	0	0	0	0	0	
101048024.012006	-0.0114474396054428	62.4526138139862	0	0	0	0	0	0	
102048524.262131	-0.00937432514035835	61.606712418675	0	0	0	0	0	0	
103049024.512256	-0.00782508608922497	60.7786415739066	0	0	0	0	0	0	
104049524.762381	-0.00986901841094044	59.9477218514828	0	0	0	0	0	0	
105050025.012506	-0.0102975845193818	59.1127046735587	0	0	0	0	0	0	
106050525.262632	-0.0115447470063129	58.2916013204101	0	0	0	0	0	0	
107051025.512757	-0.0153600403448023	57.4659167558185	0	0	0	0	0	0	
108051525.762882	-0.0179473621126367	56.6458380804543	0	0	0	0	0	0	
109052026.013007	-0.0227901143924596	55.8288876856581	0	0	0	0	0	0	
110052526.263132	-0.0238981966697206	55.0132867356236	0	0	0	0	0	0	
111053026.513257	-0.0294687367090109	54.2119751335284	0	0	0	0	0	0	
112053526.763382	-0.0303979615611804	53.4114086452218	0	0	0	0	0	0	
113054027.013507	-0.0326705128429104	52.5993179825516	0	0	0	0	0	0	
114054527.263632	-0.0375944235539892	51.7881010563823	0	0	0	0	0	0	
115055027.513757	-0.0354836297691904	50.9854173590741	0	0	0	0	0	0	
116055527.763882	-0.0370086599552408	50.2141191414843	0	0	0	0	0	0	
117056028.014007	-0.0380089549268494	49.4143430086772	0	0	0	0	0	0	
118056528.264132	-0.0370990437971453	48.6363631578359	0	0	0	0	0	0	
119057028.514257	-0.0356071285810616	47.84629067952	0	0	0	0	0	0	
120057528.764382	-0.0357414628827429	47.0705614953737	0	0	0	0	0	0	
121058029.014507	-0.0310643265144686	46.2959911555706	0	0	0	0	0	0	
122058529.264633	-0.03437327515508	45.5408288578119	0	0	0	0	0	0	
123059029.514758	-0.0306136285990089	44.7710997150657	0	0	0	0	0	0	
124059529.764883	-0.0315301901189235	43.9978649096398	0	0	0	0	0	0	
125060030.015008	-0.0304592357275408	43.2337505118447	0	0	0	0	0	0	
126060530.265133	-0.0297808547077172	42.472034271741	0	0	0	0	0	0	
127061030.515258	-0.0285248113677134	41.7050086302535	0	0	0	0	0	0	
128061530.765383	-0.0265973845107635	40.9569433603877	0	0	0	0	0	0	
129062031.015508	-0.0245205939578528	40.2134415108673	0	0	0	0	0	0	
130062531.265633	-0.0237260323075611	39.4692332690624	0	0	0	0	0	0	
131063031.515758	-0.018733059255127	38.721455569013	0	0	0	0	0	0	
132063531.765883	-0.0169818612973374	37.9972802836337	0	0	0	0	0	0	
133064032.016008	-0.0155801309503821	37.2704038964231	0	0	0	0	0	0	
134064532.266133	-0.0138453898101519	36.5146009974392	0	0	0	0	0	0	
135065032.516258	-0.0116949193818252	35.8119888069257	0	0	0	0	0	0	
136065532.766383	-0.0119913913310105	35.0807285730885	0	0	0	0	0	0	
137066033.016508	-0.0111429669899638	34.3711474743652	0	0	0	0	0	0	
138066533.266634	-0.00894635494390567	33.6559397223896	0	0	0	0	0	0	
139067033.516759	-0.0100860309791975	32.9325205091349	0	0	0	0	0	0	
140067533.766884	-0.0130209188284747	32.2058537698643	0	0	0	0	0	0	
141068034.017009	-0.016493326470385	31.4959143139185	0	0	0	0	0	0	
142068534.267134	-0.0182952203137185	30.7850644372904	0	0	0	0	0	0	
143069034.517259	-0.0228183336272364	30.0717694008313	0	0	0	0	0	0	
144069534.767384	-0.0271438502403523	29.3468235797694	0	0	0	0	0	0	
145070035.017509	-0.0305309027806849	28.6324496864609	0	0	0	0	0	0	
146070535.267634	-0.0387113781199775	27.9222527442408	0	0	0	0	0	0	
147071035.517759	-0.0434873805243118	27.204638038697	0	0	0	0	0	0	
148071535.767884	-0.0478125540127103	26.4755608531651	0	0	0	0	0	0	
149072036.018009	-0.0536221047821993	25.752875230783	0	0	0	0	0	0	
150072536.268134	-0.0575815111494564	25.020657233615	0	0	0	0	0	0	
151073036.518259	-0.0622621676832792	24.3041744331429	0	0	0	0	0	0	
152073536.768384	-0.0657076063939188	23.5847439755298	0	0	0	0	0	0	
153074037.018509	-0.0700754801734503	22.8690164643861	0	0	0	0	0	0	
154074537.268634	-0.0710859491666446	22.1388402989803	0	0	0	0	0	0	
155075037.518759	-0.0757194715817315	21.4157342206437	0	0	0	0	0	0	
156075537.768884	-0.0770690694329832	20.7089130152115	0	0	0	0	0	0	
157076038.01901	-0.0785410466626694	19.9948100477532	0	0	0	0	0	0	
158076538.269135	-0.0803728724019049	19.2783069613728	0	0	0	0	0	0	
159077038.51926	-0.082463303630672	18.573268249026	0	0	0	0	0	0	
160077538.769385	-0.082651339424425	17.8518743099342	0	0	0	0	0	0	
161078039.01951	-0.0865908957254754	17.1283014687691	0	0	0	0	0	0	
162078539.269635	-0.0854040985192938	16.435011439103	0	0	0	0	0	0	
163079039.51976	-0.087612496580756	15.7046306401112	0	0	0	0	0	0	
164079539.769885	-0.0889078230575787	15.002986311716	0	0	0	0	0	0	
165080040.02001	-0.0885222504668021	14.2730774106601	0	0	0	0	0	0	
166080540.270135	-0.0865423996461037	13.556078619577	0	0	0	0	0	0	
167081040.52026	-0.0877814728755713	12.8365933928417	0	0	0	0	0	0	
168081540.770385	-0.0902482737799228	12.1138396005495	0	0	0	0	0	0	
169082041.02051	-0.0928576916967036	11.4063050199912	0	0	0	0	0	0	
170082541.270635	-0.0972367609311849	10.7044873459167	0	0	0	0	0	0	
171083041.52076	-0.0994817450198818	9.99216725759021	0	0	0	0	0	0	
172083541.770885	-0.102539865487331	9.25146496758266	0	0	0	0	0	0	
173084042.02101	-0.105546843369339	8.52402605722683	0	0	0	0	0	0	
174084542.271135	-0.112401830522785	7.80500982261818	0	0	0	0	0	0	
175085042.52126	-0.120177728782902	7.07963026879961	0	0	0	0	0	0	
176085542.771385	-0.129140745996077	6.34377676889	0	0	0	0	0	0	
177086043.021511	-0.135443168832782	5.62390202517851	0	0	0	0	0	0	
178086543.271636	-0.144822294731774	4.8929547288894	0	0	0	0	0	0	
179087043.521761	-0.156504676174878	4.14549740341141	0	0	0	0	0	0	
180087543.771886	-0.16742668589154	3.40732427716418	0	0	0	0	0	0	
181088044.022011	-0.181654876606099	2.66264916467554	0	0	0	0	0	0	
182088544.272136	-0.193428400896145	1.91679245278487	0	0	0	0	0	0	
183089044.522261	-0.204297132979536	1.15862254891464	0	0	0	0	0	0	
184089544.772386	-0.217092568723238	0.407087473428636	0	0	0	0	0	0	
185090045.022511	-0.228826154040158	-0.367852570085268	0	0	0	0	0	0	
186090545.272636	-0.242846698533363	-1.14647714836034	0	0	0	0	0	0	
187091045.522761	-0.254791907340913	-1.94000863748131	0	0	0	0	0	0	
188091545.772886	-0.269061963109422	-2.71619071543513	0	0	0	0	0	0	
189092046.023011	-0.284294332223893	-3.49931490425294	0	0	0	0	0	0	
190092546.273136	-0.295983209724054	-4.27953212854473	0	0	0	0	0	0	
191093046.523261	-0.310422508808976	-5.08151859446223	0	0	0	0	0	0	
192093546.773386	-0.326298920236394	-5.88201382760063	0	0	0	0	0	0	
193094047.023511	-0.340556668966306	-6.68868630366593	0	0	0	0	0	0	
194094547.273636	-0.358818159332248	-7.47487193867146	0	0	0	0	0	0	
195095047.523761	-0.373915116467871	-8.26307627153923	0	0	0	0	0	0	
196095547.773886	-0.389722807553215	-9.05557441448454	0	0	0	0	0	0	
197096048.024012	-0.403987532549611	-9.83256176825592	0	0	0	0	0	0	
198096548.274137	-0.421629638639336	-10.6508054175957	0	0	0	0	0	0	
199097048.524262	-0.436244939251747	-11.457593472168	0	0	0	0	0	0	
200097548.774387	-0.457138695151092	-12.2024477899863	0	0	0	0	0	0	
201098049.024512	-0.474565239658235	-13.0207031624163	0	0	0	0	0	0	
202098549.274637	-0.491391895097189	-13.8269901820449	0	0	0	0	0	0	
203099049.524762	-0.511886666643253	-14.6526598456654	0	0	0	0	0	0	
204099549.774887	-0.536413388638513	-15.49222196272	0	0	0	0	0	0	
205100050.025012	-0.565370202098502	-16.3076758623186	0	0	0	0	0	0	
206100550.275137	-0.591191343122379	-17.1090236134727	0	0	0	0	0	0	
207101050.525262	-0.619103551655327	-17.9503280470666	0	0	0	0	0	0	
208101550.775387	-0.652451603039336	-18.7715280715699	0	0	0	0	0	0	
209102051.025512	-0.685008443084483	-19.6021498118383	0	0	0	0	0	0	
210102551.275637	-0.725841964993978	-20.4481705081023	0	0	0	0	0	0	
211103051.525762	-0.770288877791328	-21.2552643878197	0	0	0	0	0	0	
212103551.775887	-0.81040900264899	-22.0605092070149	0	0	0	0	0	0	
213104052.026012	-0.847488264494759	-22.8906126406137	0	0	0	0	0	0	
214104552.276137	-0.895750394841325	-23.7536022573553	0	0	0	0	0	0	
215105052.526262	-0.943015479389301	-24.5921013864583	0	0	0	0	0	0	
216105552.776387	-0.990950656033991	-25.4629530047385	0	0	0	0	0	0	
217106053.026513	-1.04648733750555	-26.3270324101101	0	0	0	0	0	0	
218106553.276638	-1.10159716207398	-27.2066303958081	0	0	0	0	0	0	
219107053.526763	-1.15903193721739	-28.0697230813357	0	0	0	0	0	0	
220107553.776888	-1.21560345804704	-29.0034159517041	0	0	0	0	0	0	
221108054.027013	-1.28354873062562	-29.9550982635982	0	0	0	0	0	0	
222108554.277138	-1.35992924063872	-30.8622361622071	0	0	0	0	0	0	
223109054.527263	-1.44191663478493	-31.7418321087171	0	0	0	0	0	0	
224109554.777388	-1.53200998895922	-32.6067689032651	0	0	0	0	0	0	
225110055.027513	-1.6252898279245	-33.3904191699333	0	0	0	0	0	0	
226110555.277638	-1.7072231881595	-34.090770294156	0	0	0	0	0	0	
227111055.527763	-1.78066182928546	-34.7959158041664	0	0	0	0	0	0	
228111555.777888	-1.84148846758004	-35.547873228801	0	0	0	0	0	0	
229112056.028013	-1.91077148816535	-36.3756353305087	0	0	0	0	0	0	
230112556.278138	-1.98645566365048	-37.2038341841798	0	0	0	0	0	0	
231113056.528263	-2.06475607528222	-37.9907339240136	0	0	0	0	0	0	
232113556.778388	-2.14008569481891	-38.7749069276887	0	0	0	0	0	0	
233114057.028513	-2.22327890695993	-39.5976615919888	0	0	0	0	0	0	
234114557.278638	-2.3026333095435	-40.3988099205252	0	0	0	0	0	0	
235115057.528763	-2.39340462515853	-41.2168739749778	0	0	0	0	0	0	
236115557.778888	-2.48490837199609	-41.9685036155214	0	0	0	0	0	0	
237116058.029014	-2.57838414709612	-42.7019925773139	0	0	0	0	0	0	
238116558.279139	-2.68197248403172	-43.4446052538837	0	0	0	0	0	0	
239117058.529264	-2.78947616440494	-44.1682606216848	0	0	0	0	0	0	
240117558.779389	-2.90358625295785	-44.8456699610056	0	0	0	0	0	0	
241118059.029514	-3.0209989383931	-45.4149712207652	0	0	0	0	0	0	
242118559.279639	-3.13459342944167	-45.9238552225709	0	0	0	0	0	0	
243119059.529764	-3.24196716219246	-46.415792723241	0	0	0	0	0	0	
244119559.779889	-3.34563333862633	-46.9230801677907	0	0	0	0	0	0	
245120060.030014	-3.46635230033446	-47.484825096446	0	0	0	0	0	0	
246120560.280139	-3.59042607608502	-47.9134278374834	0	0	0	0	0	0	
247121060.530264	-3.70598129864646	-48.2360553396588	0	0	0	0	0	0	
248121560.780389	-3.79901188782053	-48.5884119599784	0	0	0	0	0	0	
249122061.030514	-3.89154511599309	-49.0208303335331	0	0	0	0	0	0	
250122561.280639	-4.00049033128845	-49.520471244572	0	0	0	0	0	0	
251123061.530764	-4.10001383072952	-50.0142686061093	0	0	0	0	0	0	
252123561.780889	-4.22627330170539	-50.5807372123613	0	0	0	0	0	0	
253124062.031014	-4.36978399508393	-50.9236484390738	0	0	0	0	0	0	
254124562.281139	-4.47289630283231	-51.1140544379773	0	0	0	0	0	0	
255125062.531264	-4.57790412645083	-51.5392832770849	0	0	0	0	0	0	
256125562.78139	-4.68525378020088	-51.9283595898682	0	0	0	0	0	0	
257126063.031515	-4.79909413226842	-52.3179012599244	0	0	0	0	0	0	
258126563.28164	-4.90602802711535	-52.7131915440803	0	0	0	0	0	0	
259127063.531765	-5.04860726747485	-53.0449224493556	0	0	0	0	0	0	
260127563.78189	-5.16211392135094	-53.1251434507462	0	0	0	0	0	0	
261128064.032015	-5.24179607629379	-53.1640166684481	0	0	0	0	0	0	
262128564.28214	-5.27793720178387	-53.5118549585876	0	0	0	0	0	0	
263129064.532265	-5.36017538803302	-54.2145520723291	0	0	0	0	0	0	
264129564.78239	-5.49275422569129	-54.6381336035191	0	0	0	0	0	0	
265130065.032515	-5.60403467757192	-54.7981530677058	0	0	0	0	0	0	
266130565.28264	-5.67147496909125	-54.9874944868783	0	0	0	0	0	0	
267131065.532765	-5.73602501457078	-55.3831862008572	0	0	0	0	0	0	
268131565.78289	-5.79664910403775	-55.8380714219701	0	0	0	0	0	0	
269132066.033015	-5.89360184281993	-56.4331871405645	0	0	0	0	0	0	
270132566.28314	-6.00773151429384	-56.8774574577914	0	0	0	0	0	0	
271133066.533265	-6.12583325870805	-57.1593324823786	0	0	0	0	0	0	
272133566.78339	-6.20848782664504	-57.2988371417777	0	0	0	0	0	0	
273134067.033515	-6.28011210565588	-57.5281998720978	0	0	0	0	0	0	
274134567.28364	-6.34492668553165	-57.8883338428567	0	0	0	0	0	0	
275135067.533765	-6.44114022881377	-58.2737576844047	0	0	0	0	0	0	
276135567.783891	-6.53117947220065	-58.5034431493764	0	0	0	0	0	0	
277136068.034016	-6.62181747978914	-58.6776174687036	0	0	0	0	0	0	
278136568.284141	-6.69600830713055	-58.750761927772	0	0	0	0	0	0	
279137068.534266	-6.73986624093864	-58.9692775972022	0	0	0	0	0	0	
280137568.784391	-6.78852856355246	-59.3932751847573	0	0	0	0	0	0	
281138069.034516	-6.88121165950555	-59.8652240658231	0	0	0	0	0	0	
282138569.284641	-6.9670589237326	-60.174859894053	0	0	0	0	0	0	
283139069.534766	-7.05172321496202	-60.5889764876115	0	0	0	0	0	0	
284139569.784891	-7.17022509276829	-60.9187633463208	0	0	0	0	0	0	
285140070.035016	-7.25345281271196	-61.1214652977896	0	0	0	0	0	0	
286140570.285141	-7.3174543448343	-61.5647884872566	0	0	0	0	0	0	
287141070.535266	-7.45046321230089	-62.2477811787833	0	0	0	0	0	0	
288141570.785391	-7.62224395878717	-62.5126602268594	0	0	0	0	0	0	
289142071.035516	-7.73739137734688	-62.4571710694279	0	0	0	0	0	0	
290142571.285641	-7.82990588697705	-62.6751751530286	0	0	0	0	0	0	
291143071.535766	-7.92961572401582	-62.9649851060782	0	0	0	0	0	0	
292143571.785891	-8.02917225630651	-63.1712038976281	0	0	0	0	0	0	
293144072.036016	-8.13650171031189	-63.6762135257156	0	0	0	0	0	0	
294144572.286141	-8.28254613841226	-64.0313984579035	0	0	0	0	0	0	
295145072.536267	-8.39912060839915	-64.0915648169483	0	0	0	0	0	0	
