!Keysight Technologies N9923A: A.08.09
!Date: Wednesday, 01 August 2018 07:24:04
!Timezone: (GMT+08:00) Kuala Lumpur, Singapore
!Model: N9923A
!Serial: MY52412143
!GPS Latitude: 
!GPS Longitude: 
!GPS TimeStamp: 0001-01-01 00:00:00Z
!GPS Seconds Since Last Read: 0
!CHECKSUM:0323680628
!Correction: S11(ON U)S21()S12()S22()
!S2P File: Measurements:S11,S21,S12,S22:
# Hz S DB R 50
5000000	-0.0297767854489078	172.866341939457	0	0	0	0	0	0	
6000500.25012506	-0.0290955085142654	171.45357645356	0	0	0	0	0	0	
7001000.50025013	-0.0319256890860728	170.047570390266	0	0	0	0	0	0	
8001500.75037519	-0.0335171815006366	168.655951276698	0	0	0	0	0	0	
9002001.00050025	-0.0343340201179198	167.271081800954	0	0	0	0	0	0	
10002501.2506253	-0.0367385649557394	165.879801114831	0	0	0	0	0	0	
11003001.5007504	-0.0377041811290077	164.496595396756	0	0	0	0	0	0	
12003501.7508754	-0.0391395999352383	163.111704915338	0	0	0	0	0	0	
13004002.0010005	-0.0392265027443	161.742455834831	0	0	0	0	0	0	
14004502.2511256	-0.0389899463834381	160.383401355173	0	0	0	0	0	0	
15005002.5012506	-0.0415259747050434	159.016565349348	0	0	0	0	0	0	
16005502.7513757	-0.0418042072589545	157.646674168385	0	0	0	0	0	0	
17006003.0015007	-0.0418427491007705	156.291362468841	0	0	0	0	0	0	
18006503.2516258	-0.0434368215715727	154.920160273056	0	0	0	0	0	0	
19007003.5017509	-0.0471876007221471	153.575692024188	0	0	0	0	0	0	
20007503.7518759	-0.0486236407875449	152.223699809831	0	0	0	0	0	0	
21008004.002001	-0.0520685708590166	150.878011518886	0	0	0	0	0	0	
22008504.2521261	-0.0532973606715454	149.534270756074	0	0	0	0	0	0	
23009004.5022511	-0.0580842499362763	148.16790523614	0	0	0	0	0	0	
24009504.7523762	-0.0579437308957004	146.848690510875	0	0	0	0	0	0	
25010005.0025012	-0.0562120180260099	145.509474738986	0	0	0	0	0	0	
26010505.2526263	-0.059148207869235	144.198158769316	0	0	0	0	0	0	
27011005.5027514	-0.0635448376111694	142.862614911879	0	0	0	0	0	0	
28011505.7528764	-0.0604498611107842	141.557197287783	0	0	0	0	0	0	
29012006.0030015	-0.0610656567876896	140.230192120438	0	0	0	0	0	0	
30012506.2531265	-0.0643016698025986	138.920309850796	0	0	0	0	0	0	
31013006.5032516	-0.062971377199018	137.63628180481	0	0	0	0	0	0	
32013506.7533767	-0.0615442738137994	136.331243443026	0	0	0	0	0	0	
33014007.0035017	-0.0581803542335809	135.029695230081	0	0	0	0	0	0	
34014507.2536268	-0.0548304953106748	133.739539979402	0	0	0	0	0	0	
35015007.5037519	-0.0543291555726879	132.461399234925	0	0	0	0	0	0	
36015507.7538769	-0.0521400823117838	131.1639347864	0	0	0	0	0	0	
37016008.004002	-0.0554282844925501	129.881061845226	0	0	0	0	0	0	
38016508.2541271	-0.0499624594791627	128.599440744644	0	0	0	0	0	0	
39017008.5042521	-0.0456792751127473	127.328151490222	0	0	0	0	0	0	
40017508.7543772	-0.0439134396570711	126.051423704936	0	0	0	0	0	0	
41018009.0045023	-0.0417162703587101	124.797198712627	0	0	0	0	0	0	
42018509.2546273	-0.0378538184171629	123.546940230572	0	0	0	0	0	0	
43019009.5047524	-0.0364112743142569	122.296098974816	0	0	0	0	0	0	
44019509.7548774	-0.0319519828635656	121.078282959198	0	0	0	0	0	0	
45020010.0050025	-0.0324554424354998	119.849793665156	0	0	0	0	0	0	
46020510.2551276	-0.0291758326237097	118.632742165077	0	0	0	0	0	0	
47021010.5052526	-0.0294159390887343	117.42728356295	0	0	0	0	0	0	
48021510.7553777	-0.0307680678292662	116.223574436014	0	0	0	0	0	0	
49022011.0055028	-0.0315550143607727	115.064300107266	0	0	0	0	0	0	
50022511.2556278	-0.0337483825341706	113.863157690016	0	0	0	0	0	0	
51023011.5057529	-0.0364602884845237	112.707859434787	0	0	0	0	0	0	
52023511.755878	-0.03862576778183	111.542295706221	0	0	0	0	0	0	
53024012.006003	-0.0423123760534219	110.386049207476	0	0	0	0	0	0	
54024512.2561281	-0.0482593602960966	109.228788893061	0	0	0	0	0	0	
55025012.5062532	-0.0494685827700347	108.105679650291	0	0	0	0	0	0	
56025512.7563782	-0.0534423067664297	106.950826344459	0	0	0	0	0	0	
57026013.0065033	-0.0572651805837117	105.81535264686	0	0	0	0	0	0	
58026513.2566284	-0.0602412428074418	104.710592294887	0	0	0	0	0	0	
59027013.5067534	-0.061193790044468	103.600577394959	0	0	0	0	0	0	
60027513.7568785	-0.0612223331898985	102.49837098614	0	0	0	0	0	0	
61028014.0070036	-0.0608202915213342	101.400853632436	0	0	0	0	0	0	
62028514.2571286	-0.0633012995061503	100.319781339994	0	0	0	0	0	0	
63029014.5072537	-0.0598215282969213	99.2367753617841	0	0	0	0	0	0	
64029514.7573788	-0.0600635229742459	98.1713025854354	0	0	0	0	0	0	
65030015.0075038	-0.0610021749834199	97.1156198808778	0	0	0	0	0	0	
66030515.2576289	-0.0566041847153755	96.0643939992694	0	0	0	0	0	0	
67031015.507754	-0.0583841082554569	95.0098221593078	0	0	0	0	0	0	
68031515.757879	-0.0552126233880909	93.9781907740597	0	0	0	0	0	0	
69032016.0080041	-0.0561638337751679	92.9245642259743	0	0	0	0	0	0	
70032516.2581291	-0.0577483462365123	91.9142326582741	0	0	0	0	0	0	
71033016.5082542	-0.0574819425272946	90.8823656230027	0	0	0	0	0	0	
72033516.7583793	-0.0551728305079056	89.8738663071347	0	0	0	0	0	0	
73034017.0085043	-0.0539614217913872	88.8386457951597	0	0	0	0	0	0	
74034517.2586294	-0.0509606622635024	87.8598508008937	0	0	0	0	0	0	
75035017.5087545	-0.0510301475214797	86.8530005600483	0	0	0	0	0	0	
76035517.7588795	-0.047401852992411	85.8571399912337	0	0	0	0	0	0	
77036018.0090046	-0.0459242054403734	84.8645953549514	0	0	0	0	0	0	
78036518.2591297	-0.0414880648754419	83.9082786161162	0	0	0	0	0	0	
79037018.5092547	-0.0397541369994517	82.9207363080237	0	0	0	0	0	0	
80037518.7593798	-0.038168605065456	81.9849453410885	0	0	0	0	0	0	
81038019.0095049	-0.0336893753635676	81.0216642568823	0	0	0	0	0	0	
82038519.2596299	-0.0303950656738951	80.0773172849814	0	0	0	0	0	0	
83039019.509755	-0.0317743837745065	79.1527535981989	0	0	0	0	0	0	
84039519.7598801	-0.0307149845888402	78.2053454152497	0	0	0	0	0	0	
85040020.0100051	-0.0316409759565996	77.2874655499261	0	0	0	0	0	0	
86040520.2601302	-0.0342365995834317	76.3653155974945	0	0	0	0	0	0	
87041020.5102553	-0.0358179565690526	75.4513914721128	0	0	0	0	0	0	
88041520.7603803	-0.039288670039073	74.5294816904282	0	0	0	0	0	0	
89042021.0105054	-0.041502934303482	73.6131399845155	0	0	0	0	0	0	
90042521.2606305	-0.0431899012693484	72.6999708904718	0	0	0	0	0	0	
91043021.5107555	-0.0449350258140587	71.8040440576943	0	0	0	0	0	0	
92043521.7608806	-0.0452952111781981	70.8957069782423	0	0	0	0	0	0	
93044022.0110057	-0.0504435799237764	70.0026935775975	0	0	0	0	0	0	
94044522.2611307	-0.0538361757497025	69.1192278644238	0	0	0	0	0	0	
95045022.5112558	-0.054930845332871	68.2410926109291	0	0	0	0	0	0	
96045522.7613809	-0.0553022846079986	67.359081633478	0	0	0	0	0	0	
97046023.0115059	-0.0538610886848984	66.4862277991329	0	0	0	0	0	0	
98046523.261631	-0.0555757136363202	65.6262046022059	0	0	0	0	0	0	
99047023.511756	-0.0557660335472264	64.7640535028857	0	0	0	0	0	0	
100047523.761881	-0.0531942337555735	63.9122986913259	0	0	0	0	0	0	
101048024.012006	-0.0524680553108478	63.0707313194074	0	0	0	0	0	0	
102048524.262131	-0.0473993184569998	62.2390248414402	0	0	0	0	0	0	
103049024.512256	-0.0519796874091274	61.3926239183875	0	0	0	0	0	0	
104049524.762381	-0.0478935724824984	60.5783248681002	0	0	0	0	0	0	
105050025.012506	-0.0498939831694271	59.7346604038337	0	0	0	0	0	0	
106050525.262632	-0.0498335502348912	58.9087685450502	0	0	0	0	0	0	
107051025.512757	-0.0454814479128978	58.1144087442361	0	0	0	0	0	0	
108051525.762882	-0.0480929307011567	57.2749833761466	0	0	0	0	0	0	
109052026.013007	-0.0458975135399331	56.4627331939705	0	0	0	0	0	0	
110052526.263132	-0.0473095184369212	55.6600104979768	0	0	0	0	0	0	
111053026.513257	-0.0458094021834214	54.8752416590295	0	0	0	0	0	0	
112053526.763382	-0.0434521884495018	54.0525956511613	0	0	0	0	0	0	
113054027.013507	-0.0426557187754014	53.2599703586521	0	0	0	0	0	0	
114054527.263632	-0.0409098958095435	52.4845199300703	0	0	0	0	0	0	
115055027.513757	-0.0399192844791551	51.6879414167375	0	0	0	0	0	0	
116055527.763882	-0.0411752625614916	50.902990550091	0	0	0	0	0	0	
117056028.014007	-0.037916014172655	50.1131383420497	0	0	0	0	0	0	
118056528.264132	-0.0381996592104272	49.3527298913327	0	0	0	0	0	0	
119057028.514257	-0.0376716358726929	48.5551407299808	0	0	0	0	0	0	
120057528.764382	-0.0325247207237711	47.7912312046268	0	0	0	0	0	0	
121058029.014507	-0.0368243151357922	47.0095773455542	0	0	0	0	0	0	
122058529.264633	-0.0401045625504091	46.2526818425989	0	0	0	0	0	0	
123059029.514758	-0.0401441232449367	45.4616714956946	0	0	0	0	0	0	
124059529.764883	-0.0426702381593839	44.6715908458393	0	0	0	0	0	0	
125060030.015008	-0.0455279552306179	43.9203351563968	0	0	0	0	0	0	
126060530.265133	-0.0467463245857975	43.1523788185267	0	0	0	0	0	0	
127061030.515258	-0.0542317078935247	42.3550502541603	0	0	0	0	0	0	
128061530.765383	-0.059911529013742	41.5729928732235	0	0	0	0	0	0	
129062031.015508	-0.0652100847870165	40.7931252558797	0	0	0	0	0	0	
130062531.265633	-0.0632477729688458	40.0311969845739	0	0	0	0	0	0	
131063031.515758	-0.0688949719809093	39.2620678520933	0	0	0	0	0	0	
132063531.765883	-0.0702640357620889	38.4950228885815	0	0	0	0	0	0	
133064032.016008	-0.0726663624122025	37.7533407632524	0	0	0	0	0	0	
134064532.266133	-0.0719322526047708	36.9971270552949	0	0	0	0	0	0	
135065032.516258	-0.0751181736095965	36.2461857051668	0	0	0	0	0	0	
136065532.766383	-0.0756459419411221	35.5135149293919	0	0	0	0	0	0	
137066033.016508	-0.0760415136381185	34.7692445696953	0	0	0	0	0	0	
138066533.266634	-0.0742930951454107	34.0527323254341	0	0	0	0	0	0	
139067033.516759	-0.0751464721817033	33.3281920058321	0	0	0	0	0	0	
140067533.766884	-0.0730322793059529	32.6047359377099	0	0	0	0	0	0	
141068034.017009	-0.074369217233367	31.8786672552327	0	0	0	0	0	0	
142068534.267134	-0.074346300548648	31.1891681064717	0	0	0	0	0	0	
143069034.517259	-0.0740112682562936	30.4827836731258	0	0	0	0	0	0	
144069534.767384	-0.0735623439291688	29.7784945517656	0	0	0	0	0	0	
145070035.017509	-0.0749360364638106	29.0841967843563	0	0	0	0	0	0	
146070535.267634	-0.0753769861339783	28.3899944465706	0	0	0	0	0	0	
147071035.517759	-0.0750319174327771	27.7071462196266	0	0	0	0	0	0	
148071535.767884	-0.0749065291679097	27.0311597118555	0	0	0	0	0	0	
149072036.018009	-0.0748168743866553	26.3439127873511	0	0	0	0	0	0	
150072536.268134	-0.0772658329578326	25.6769772418121	0	0	0	0	0	0	
151073036.518259	-0.075499960417758	24.9825766403127	0	0	0	0	0	0	
152073536.768384	-0.0744793915681479	24.3069394769928	0	0	0	0	0	0	
153074037.018509	-0.0738200499350646	23.6186768478187	0	0	0	0	0	0	
154074537.268634	-0.0748776210323679	22.939672007746	0	0	0	0	0	0	
155075037.518759	-0.0772222016393987	22.2596956161577	0	0	0	0	0	0	
156075537.768884	-0.0764452748722931	21.5755759386443	0	0	0	0	0	0	
157076038.01901	-0.0797158274400981	20.8794374038877	0	0	0	0	0	0	
158076538.269135	-0.0817640123124932	20.193471482586	0	0	0	0	0	0	
159077038.51926	-0.0858539441208766	19.5056319097965	0	0	0	0	0	0	
160077538.769385	-0.0916499494707149	18.7929996825273	0	0	0	0	0	0	
161078039.01951	-0.0959705299119326	18.0856770596014	0	0	0	0	0	0	
162078539.269635	-0.102829578303226	17.3616546017725	0	0	0	0	0	0	
163079039.51976	-0.108758837541121	16.6485920144517	0	0	0	0	0	0	
164079539.769885	-0.115749619798992	15.9081007625614	0	0	0	0	0	0	
165080040.02001	-0.122419657971531	15.1845718931879	0	0	0	0	0	0	
166080540.270135	-0.126902739101506	14.4456552139265	0	0	0	0	0	0	
167081040.52026	-0.134328433733044	13.7161162377331	0	0	0	0	0	0	
168081540.770385	-0.141740249504885	12.9684657984542	0	0	0	0	0	0	
169082041.02051	-0.14699465289733	12.232813421364	0	0	0	0	0	0	
170082541.270635	-0.153800229121599	11.490283169579	0	0	0	0	0	0	
171083041.52076	-0.156552587298831	10.7421124730912	0	0	0	0	0	0	
172083541.770885	-0.164486371118336	9.9983139776018	0	0	0	0	0	0	
173084042.02101	-0.170062147345844	9.25481036180548	0	0	0	0	0	0	
174084542.271135	-0.175010502038896	8.50495558375097	0	0	0	0	0	0	
175085042.52126	-0.179838626266677	7.77137507116067	0	0	0	0	0	0	
176085542.771385	-0.184186583140877	7.02349898923376	0	0	0	0	0	0	
177086043.021511	-0.187981272602404	6.2864461919783	0	0	0	0	0	0	
178086543.271636	-0.192607461205215	5.54664528736413	0	0	0	0	0	0	
179087043.521761	-0.198345676756553	4.8181737088477	0	0	0	0	0	0	
180087543.771886	-0.203227854876389	4.07877422649324	0	0	0	0	0	0	
181088044.022011	-0.20560405866359	3.34840716708678	0	0	0	0	0	0	
182088544.272136	-0.212795611040556	2.60779607896312	0	0	0	0	0	0	
183089044.522261	-0.219952537980662	1.8827512926378	0	0	0	0	0	0	
184089544.772386	-0.22516676569405	1.15049913093576	0	0	0	0	0	0	
185090045.022511	-0.231029819235178	0.406209636930581	0	0	0	0	0	0	
186090545.272636	-0.241004913723072	-0.331011661038769	0	0	0	0	0	0	
187091045.522761	-0.25128651958337	-1.05972082577191	0	0	0	0	0	0	
188091545.772886	-0.256900181407547	-1.78407280374297	0	0	0	0	0	0	
189092046.023011	-0.26752879214485	-2.52151061949532	0	0	0	0	0	0	
190092546.273136	-0.277139801595549	-3.27680980810734	0	0	0	0	0	0	
191093046.523261	-0.292549525310672	-4.01314418988559	0	0	0	0	0	0	
192093546.773386	-0.305777096913804	-4.75016121576516	0	0	0	0	0	0	
193094047.023511	-0.319375355330177	-5.51870573524266	0	0	0	0	0	0	
194094547.273636	-0.337910506930909	-6.27075684408161	0	0	0	0	0	0	
195095047.523761	-0.35567781894521	-7.05443542286047	0	0	0	0	0	0	
196095547.773886	-0.373531603836059	-7.82247434995152	0	0	0	0	0	0	
197096048.024012	-0.396955311745415	-8.59854192750288	0	0	0	0	0	0	
198096548.274137	-0.416168685912741	-9.37355081583488	0	0	0	0	0	0	
199097048.524262	-0.439258798056367	-10.1930458303626	0	0	0	0	0	0	
200097548.774387	-0.46415444083686	-11.0027596056276	0	0	0	0	0	0	
201098049.024512	-0.492839895796006	-11.8141427533748	0	0	0	0	0	0	
202098549.274637	-0.518526436972994	-12.6342959914977	0	0	0	0	0	0	
203099049.524762	-0.544227154600548	-13.4871777124979	0	0	0	0	0	0	
204099549.774887	-0.579214211306716	-14.3487336037047	0	0	0	0	0	0	
205100050.025012	-0.614533170996851	-15.1718266999781	0	0	0	0	0	0	
206100550.275137	-0.648851844487532	-16.0310408490201	0	0	0	0	0	0	
207101050.525262	-0.678607525512859	-16.8647441595465	0	0	0	0	0	0	
208101550.775387	-0.717517274045814	-17.7323742787961	0	0	0	0	0	0	
209102051.025512	-0.752626674853352	-18.6253940211269	0	0	0	0	0	0	
210102551.275637	-0.793047109168965	-19.4895948950504	0	0	0	0	0	0	
211103051.525762	-0.83353059532646	-20.3573590973168	0	0	0	0	0	0	
212103551.775887	-0.871862247231983	-21.2656023716339	0	0	0	0	0	0	
213104052.026012	-0.917377676205386	-22.1528101404504	0	0	0	0	0	0	
214104552.276137	-0.964620484656303	-23.0390846539695	0	0	0	0	0	0	
215105052.526262	-1.01502814789195	-23.8720559525931	0	0	0	0	0	0	
216105552.776387	-1.0588336251535	-24.7229430697609	0	0	0	0	0	0	
217106053.026513	-1.10017940588074	-25.5751287725298	0	0	0	0	0	0	
218106553.276638	-1.15752952835615	-26.5423763408535	0	0	0	0	0	0	
219107053.526763	-1.21589385425615	-27.3391009656366	0	0	0	0	0	0	
220107553.776888	-1.27028252541959	-28.1851277111853	0	0	0	0	0	0	
221108054.027013	-1.32350752036125	-29.0395207183007	0	0	0	0	0	0	
222108554.277138	-1.39065274159997	-29.9533167264213	0	0	0	0	0	0	
223109054.527263	-1.46291701597999	-30.6957784447915	0	0	0	0	0	0	
224109554.777388	-1.5282240732927	-31.514273875836	0	0	0	0	0	0	
225110055.027513	-1.5912077064086	-32.2785340177558	0	0	0	0	0	0	
226110555.277638	-1.66256196988809	-33.1114300068104	0	0	0	0	0	0	
227111055.527763	-1.74273265371556	-33.9036668096065	0	0	0	0	0	0	
228111555.777888	-1.82031535804596	-34.6841506061228	0	0	0	0	0	0	
229112056.028013	-1.90480934002167	-35.4133242623949	0	0	0	0	0	0	
230112556.278138	-1.98144064324336	-36.2029688445311	0	0	0	0	0	0	
231113056.528263	-2.07629779751637	-36.9526439749247	0	0	0	0	0	0	
232113556.778388	-2.16744137338478	-37.6488307800707	0	0	0	0	0	0	
233114057.028513	-2.25912554957396	-38.4012564635776	0	0	0	0	0	0	
234114557.278638	-2.35595059972903	-39.0530410868542	0	0	0	0	0	0	
235115057.528763	-2.44620143680455	-39.8211271384637	0	0	0	0	0	0	
236115557.778888	-2.55001114561719	-40.5436511964029	0	0	0	0	0	0	
237116058.029014	-2.65951544563628	-41.2213382278938	0	0	0	0	0	0	
238116558.279139	-2.77067942329424	-41.8387579285548	0	0	0	0	0	0	
239117058.529264	-2.87251321882216	-42.468754777728	0	0	0	0	0	0	
240117558.779389	-2.99614152958001	-43.0318836701931	0	0	0	0	0	0	
241118059.029514	-3.09573671420887	-43.6159767180535	0	0	0	0	0	0	
242118559.279639	-3.20894646032912	-44.1622501739819	0	0	0	0	0	0	
243119059.529764	-3.31425546795627	-44.6928213393631	0	0	0	0	0	0	
244119559.779889	-3.41761407698164	-45.2378859706193	0	0	0	0	0	0	
245120060.030014	-3.5134049662647	-45.7595246517974	0	0	0	0	0	0	
246120560.280139	-3.62430759725549	-46.4635561071917	0	0	0	0	0	0	
247121060.530264	-3.76127502922801	-46.8864486031984	0	0	0	0	0	0	
248121560.780389	-3.85307288359759	-47.3198308139826	0	0	0	0	0	0	
249122061.030514	-3.96451872277502	-47.8556763202796	0	0	0	0	0	0	
250122561.280639	-4.08091800080988	-48.3569147193552	0	0	0	0	0	0	
251123061.530764	-4.19184310552143	-48.6923709220523	0	0	0	0	0	0	
252123561.780889	-4.27314415011133	-49.0828755786744	0	0	0	0	0	0	
253124062.031014	-4.37586439042982	-49.7401925212409	0	0	0	0	0	0	
254124562.281139	-4.49067861413789	-50.1435615643127	0	0	0	0	0	0	
255125062.531264	-4.60933295554442	-50.67341256372	0	0	0	0	0	0	
256125562.78139	-4.73390064461841	-50.8811069580472	0	0	0	0	0	0	
257126063.031515	-4.83552708827084	-51.2015607994657	0	0	0	0	0	0	
258126563.28164	-4.94260356778913	-51.4775745402063	0	0	0	0	0	0	
259127063.531765	-5.04817378686426	-51.7026941381411	0	0	0	0	0	0	
260127563.78189	-5.1356343483679	-51.8289397591075	0	0	0	0	0	0	
261128064.032015	-5.20031950584397	-52.2474617791127	0	0	0	0	0	0	
262128564.28214	-5.31460366723349	-52.6272545949436	0	0	0	0	0	0	
263129064.532265	-5.41274411311894	-52.8652035215425	0	0	0	0	0	0	
264129564.78239	-5.52087370378805	-53.0745448870846	0	0	0	0	0	0	
265130065.032515	-5.63115887678142	-53.1951696361953	0	0	0	0	0	0	
266130565.28264	-5.70387405574459	-53.2553374551872	0	0	0	0	0	0	
267131065.532765	-5.76569620320859	-53.5516831541225	0	0	0	0	0	0	
268131565.78289	-5.87575172207942	-53.7673833936461	0	0	0	0	0	0	
269132066.033015	-5.94050508537712	-53.8116802350028	0	0	0	0	0	0	
270132566.28314	-5.98721985005246	-54.3427603036881	0	0	0	0	0	0	
271133066.533265	-6.10598641595572	-54.7146152115584	0	0	0	0	0	0	
272133566.78339	-6.18548951678773	-54.8813990517609	0	0	0	0	0	0	
273134067.033515	-6.27530044549714	-55.3537937895543	0	0	0	0	0	0	
274134567.28364	-6.39638073419822	-55.3932542202241	0	0	0	0	0	0	
275135067.533765	-6.43655436116865	-55.5640378717758	0	0	0	0	0	0	
276135567.783891	-6.52451050334931	-56.0279769202027	0	0	0	0	0	0	
277136068.034016	-6.63161880124386	-56.4276421013407	0	0	0	0	0	0	
278136568.284141	-6.70695149897978	-56.5629725671621	0	0	0	0	0	0	
279137068.534266	-6.78529626166906	-56.9569741019871	0	0	0	0	0	0	
280137568.784391	-6.87915935918242	-57.4748894623804	0	0	0	0	0	0	
281138069.034516	-7.00419153875345	-57.8762907314741	0	0	0	0	0	0	
282138569.284641	-7.13935794693261	-58.1419159359575	0	0	0	0	0	0	
283139069.534766	-7.24931364651532	-58.1678093261841	0	0	0	0	0	0	
284139569.784891	-7.30431375245326	-58.319499528209	0	0	0	0	0	0	
285140070.035016	-7.40035471215998	-58.8832182370398	0	0	0	0	0	0	
286140570.285141	-7.53899397253495	-58.9836943431227	0	0	0	0	0	0	
287141070.535266	-7.5929566471386	-59.2643132431949	0	0	0	0	0	0	
288141570.785391	-7.71332904888944	-59.6033291802781	0	0	0	0	0	0	
289142071.035516	-7.80960014823818	-60.0725357070832	0	0	0	0	0	0	
290142571.285641	-7.98617639774562	-60.2231411463326	0	0	0	0	0	0	
291143071.535766	-8.08351899682323	-60.1537865700889	0	0	0	0	0	0	
292143571.785891	-8.16288803624146	-60.2535946627639	0	0	0	0	0	0	
293144072.036016	-8.24151954710543	-60.4042409321179	0	0	0	0	0	0	
294144572.286141	-8.34304064690174	-60.6488970624559	0	0	0	0	0	0	
295145072.536267	-8.43753630877975	-60.8982393176653	0	0	0	0	0	0	
