!Keysight Technologies N9923A: A.08.09
!Date: Wednesday, 01 August 2018 07:25:48
!Timezone: (GMT+08:00) Kuala Lumpur, Singapore
!Model: N9923A
!Serial: MY52412143
!GPS Latitude: 
!GPS Longitude: 
!GPS TimeStamp: 0001-01-01 00:00:00Z
!GPS Seconds Since Last Read: 0
!CHECKSUM:0298729584
!Correction: S11(ON U)S21()S12()S22()
!S2P File: Measurements:S11,S21,S12,S22:
# Hz S DB R 50
5000000	-0.0279093841666478	172.829716674231	0	0	0	0	0	0	
6000500.25012506	-0.0255745251835384	171.407063537963	0	0	0	0	0	0	
7001000.50025013	-0.0301235235764606	169.989068162227	0	0	0	0	0	0	
8001500.75037519	-0.0291676998371961	168.581411488933	0	0	0	0	0	0	
9002001.00050025	-0.0279975276547589	167.167992167943	0	0	0	0	0	0	
10002501.2506253	-0.028469738433167	165.772162254304	0	0	0	0	0	0	
11003001.5007504	-0.0297534697364244	164.380449166537	0	0	0	0	0	0	
12003501.7508754	-0.0306740841051656	162.983341061195	0	0	0	0	0	0	
13004002.0010005	-0.0295321840460175	161.590206877355	0	0	0	0	0	0	
14004502.2511256	-0.0273241046634854	160.214958691756	0	0	0	0	0	0	
15005002.5012506	-0.0299981899223521	158.833421164931	0	0	0	0	0	0	
16005502.7513757	-0.0296877861788808	157.446904908943	0	0	0	0	0	0	
17006003.0015007	-0.031518714578894	156.075536990167	0	0	0	0	0	0	
18006503.2516258	-0.0334877387630332	154.695551987643	0	0	0	0	0	0	
19007003.5017509	-0.0357451186681468	153.331908212593	0	0	0	0	0	0	
20007503.7518759	-0.037664477085101	151.962900477644	0	0	0	0	0	0	
21008004.002001	-0.0399055928253083	150.608264598849	0	0	0	0	0	0	
22008504.2521261	-0.0426153518144998	149.243856030125	0	0	0	0	0	0	
23009004.5022511	-0.0500303524684322	147.867541359394	0	0	0	0	0	0	
24009504.7523762	-0.0480122858104233	146.543181112224	0	0	0	0	0	0	
25010005.0025012	-0.0484820088254546	145.185600867991	0	0	0	0	0	0	
26010505.2526263	-0.0509249581813942	143.868984773838	0	0	0	0	0	0	
27011005.5027514	-0.0554138782690366	142.522490009333	0	0	0	0	0	0	
28011505.7528764	-0.0534485704744164	141.215016555862	0	0	0	0	0	0	
29012006.0030015	-0.0553095964930886	139.889078908781	0	0	0	0	0	0	
30012506.2531265	-0.0583296201758025	138.567123594813	0	0	0	0	0	0	
31013006.5032516	-0.0605108641207737	137.259643036371	0	0	0	0	0	0	
32013506.7533767	-0.0611279305824872	135.967444141322	0	0	0	0	0	0	
33014007.0035017	-0.0588028835388976	134.664969248297	0	0	0	0	0	0	
34014507.2536268	-0.0557191760551909	133.373303594356	0	0	0	0	0	0	
35015007.5037519	-0.0559434102920443	132.088749232083	0	0	0	0	0	0	
36015507.7538769	-0.055104592914958	130.798191470941	0	0	0	0	0	0	
37016008.004002	-0.0575719399610283	129.520035582389	0	0	0	0	0	0	
38016508.2541271	-0.0555861952605903	128.271691290501	0	0	0	0	0	0	
39017008.5042521	-0.0506800931587041	126.999081888958	0	0	0	0	0	0	
40017508.7543772	-0.0500045550050331	125.730700562344	0	0	0	0	0	0	
41018009.0045023	-0.0499190053850882	124.487359300226	0	0	0	0	0	0	
42018509.2546273	-0.0461960675523049	123.254573107935	0	0	0	0	0	0	
43019009.5047524	-0.0441946215793017	122.006451508856	0	0	0	0	0	0	
44019509.7548774	-0.0393270737947029	120.796420704353	0	0	0	0	0	0	
45020010.0050025	-0.038392225733995	119.573993241457	0	0	0	0	0	0	
46020510.2551276	-0.0349831517304387	118.372506668805	0	0	0	0	0	0	
47021010.5052526	-0.0349837112320331	117.168033777101	0	0	0	0	0	0	
48021510.7553777	-0.0357677074605432	115.974146210965	0	0	0	0	0	0	
49022011.0055028	-0.0352103652646524	114.814022399996	0	0	0	0	0	0	
50022511.2556278	-0.0378287577037243	113.620298117073	0	0	0	0	0	0	
51023011.5057529	-0.0385541774151267	112.454525249117	0	0	0	0	0	0	
52023511.755878	-0.0428598311989044	111.291796680152	0	0	0	0	0	0	
53024012.006003	-0.0446006173851794	110.120781173174	0	0	0	0	0	0	
54024512.2561281	-0.0490751629853341	108.956310844239	0	0	0	0	0	0	
55025012.5062532	-0.0510644232843992	107.827964850616	0	0	0	0	0	0	
56025512.7563782	-0.0561767332808282	106.656849419259	0	0	0	0	0	0	
57026013.0065033	-0.059103714634301	105.517307215858	0	0	0	0	0	0	
58026513.2566284	-0.0613967473300321	104.399617611255	0	0	0	0	0	0	
59027013.5067534	-0.0628557809899802	103.278540641614	0	0	0	0	0	0	
60027513.7568785	-0.0630974481947213	102.162538883087	0	0	0	0	0	0	
61028014.0070036	-0.0621500401189973	101.054786618432	0	0	0	0	0	0	
62028514.2571286	-0.0652099023664596	99.9674739550956	0	0	0	0	0	0	
63029014.5072537	-0.0616934262008831	98.875056302005	0	0	0	0	0	0	
64029514.7573788	-0.0632869720546599	97.8035351509815	0	0	0	0	0	0	
65030015.0075038	-0.0623983183097153	96.7327442607187	0	0	0	0	0	0	
66030515.2576289	-0.0579142083273151	95.6596096051117	0	0	0	0	0	0	
67031015.507754	-0.0598460463742657	94.6161998838637	0	0	0	0	0	0	
68031515.757879	-0.0587849605604937	93.5711060096789	0	0	0	0	0	0	
69032016.0080041	-0.0593839641420408	92.4976014318455	0	0	0	0	0	0	
70032516.2581291	-0.0602212856816896	91.486112305067	0	0	0	0	0	0	
71033016.5082542	-0.0605783409982872	90.4486305412734	0	0	0	0	0	0	
72033516.7583793	-0.0580063253858355	89.433310567451	0	0	0	0	0	0	
73034017.0085043	-0.0557531456610466	88.4065818301134	0	0	0	0	0	0	
74034517.2586294	-0.0523143433460321	87.4063693341231	0	0	0	0	0	0	
75035017.5087545	-0.0518752410093508	86.3947336691033	0	0	0	0	0	0	
76035517.7588795	-0.0472965489087593	85.4031948657783	0	0	0	0	0	0	
77036018.0090046	-0.0452616474303416	84.4120805904956	0	0	0	0	0	0	
78036518.2591297	-0.0431046197262356	83.450388306626	0	0	0	0	0	0	
79037018.5092547	-0.0400330604212988	82.4604842321657	0	0	0	0	0	0	
80037518.7593798	-0.0383128740757331	81.512885615605	0	0	0	0	0	0	
81038019.0095049	-0.033580620537807	80.5532769032243	0	0	0	0	0	0	
82038519.2596299	-0.0294552143014158	79.5996507743185	0	0	0	0	0	0	
83039019.509755	-0.0301534649979101	78.6744834490999	0	0	0	0	0	0	
84039519.7598801	-0.0312884750481214	77.7229027953631	0	0	0	0	0	0	
85040020.0100051	-0.0307190412189528	76.8025403668384	0	0	0	0	0	0	
86040520.2601302	-0.0351757513077644	75.8771949464578	0	0	0	0	0	0	
87041020.5102553	-0.035167840874461	74.9563370786236	0	0	0	0	0	0	
88041520.7603803	-0.0408577338769819	74.0288641771831	0	0	0	0	0	0	
89042021.0105054	-0.0422961084198095	73.0977765835446	0	0	0	0	0	0	
90042521.2606305	-0.0448338973597731	72.1791977042306	0	0	0	0	0	0	
91043021.5107555	-0.0475709529402574	71.2854542972796	0	0	0	0	0	0	
92043521.7608806	-0.0480173559839777	70.3654722204922	0	0	0	0	0	0	
93044022.0110057	-0.054167713843359	69.4562065415835	0	0	0	0	0	0	
94044522.2611307	-0.0582496210397591	68.5619328778628	0	0	0	0	0	0	
95045022.5112558	-0.0611936633557053	67.6857184763132	0	0	0	0	0	0	
96045522.7613809	-0.0609447715580831	66.7764594789834	0	0	0	0	0	0	
97046023.0115059	-0.0613011555487355	65.9051661201487	0	0	0	0	0	0	
98046523.261631	-0.0626113286316367	65.0324150121591	0	0	0	0	0	0	
99047023.511756	-0.0642011680960215	64.1747816634397	0	0	0	0	0	0	
100047523.761881	-0.0611928927112109	63.3155315864895	0	0	0	0	0	0	
101048024.012006	-0.0601833819258505	62.4584532997812	0	0	0	0	0	0	
102048524.262131	-0.0559195209202985	61.626521677042	0	0	0	0	0	0	
103049024.512256	-0.0591319597532656	60.7761116020062	0	0	0	0	0	0	
104049524.762381	-0.0577919315086077	59.9537528522406	0	0	0	0	0	0	
105050025.012506	-0.0576286603326408	59.0970780318853	0	0	0	0	0	0	
106050525.262632	-0.0562688927953734	58.2805670001234	0	0	0	0	0	0	
107051025.512757	-0.0559721286675284	57.4795825766706	0	0	0	0	0	0	
108051525.762882	-0.0542300206171797	56.6454387832922	0	0	0	0	0	0	
109052026.013007	-0.0529434669746369	55.8328248341644	0	0	0	0	0	0	
110052526.263132	-0.0538282127717653	55.0285505729248	0	0	0	0	0	0	
111053026.513257	-0.0518027235769309	54.2275043857183	0	0	0	0	0	0	
112053526.763382	-0.0492008250838332	53.424793270917	0	0	0	0	0	0	
113054027.013507	-0.0465816082676259	52.6342777946531	0	0	0	0	0	0	
114054527.263632	-0.0465207139875718	51.8519480683482	0	0	0	0	0	0	
115055027.513757	-0.0460665205787818	51.0633801479488	0	0	0	0	0	0	
116055527.763882	-0.0449088835322711	50.2857446836795	0	0	0	0	0	0	
117056028.014007	-0.0416064242523105	49.5039181827017	0	0	0	0	0	0	
118056528.264132	-0.0399282650226359	48.7406501496035	0	0	0	0	0	0	
119057028.514257	-0.0403950988156227	47.9547026576343	0	0	0	0	0	0	
120057528.764382	-0.0347147577510196	47.1863851399117	0	0	0	0	0	0	
121058029.014507	-0.0370019599765694	46.4076902454173	0	0	0	0	0	0	
122058529.264633	-0.0393754440527012	45.6564832144832	0	0	0	0	0	0	
123059029.514758	-0.0398874248299749	44.8624736932614	0	0	0	0	0	0	
124059529.764883	-0.0429876916108448	44.0789081184064	0	0	0	0	0	0	
125060030.015008	-0.0448972231189577	43.3232085312527	0	0	0	0	0	0	
126060530.265133	-0.0465881210996121	42.5549280400417	0	0	0	0	0	0	
127061030.515258	-0.0513775928544142	41.7532482136628	0	0	0	0	0	0	
128061530.765383	-0.0573061731966404	40.976144883012	0	0	0	0	0	0	
129062031.015508	-0.0617472349288339	40.1795451396723	0	0	0	0	0	0	
130062531.265633	-0.0626636155675851	39.4148928693315	0	0	0	0	0	0	
131063031.515758	-0.0679356591364391	38.6388688557967	0	0	0	0	0	0	
132063531.765883	-0.0678028817802361	37.8705685905418	0	0	0	0	0	0	
133064032.016008	-0.0713629055462345	37.1133931994353	0	0	0	0	0	0	
134064532.266133	-0.0723109644149441	36.3520601587815	0	0	0	0	0	0	
135065032.516258	-0.0726546927407532	35.5889407033138	0	0	0	0	0	0	
136065532.766383	-0.0742183935269735	34.8353717267992	0	0	0	0	0	0	
137066033.016508	-0.0762135639645091	34.0906174143347	0	0	0	0	0	0	
138066533.266634	-0.0742382473350203	33.3830455298713	0	0	0	0	0	0	
139067033.516759	-0.0751054553302704	32.6314799232976	0	0	0	0	0	0	
140067533.766884	-0.0731082561887625	31.9054304140346	0	0	0	0	0	0	
141068034.017009	-0.0745193523863617	31.180903830594	0	0	0	0	0	0	
142068534.267134	-0.0734612124788911	30.4697531378182	0	0	0	0	0	0	
143069034.517259	-0.0736733014257741	29.7588663047274	0	0	0	0	0	0	
144069534.767384	-0.0732661583954958	29.0403670212091	0	0	0	0	0	0	
145070035.017509	-0.073603899473662	28.3464381776581	0	0	0	0	0	0	
146070535.267634	-0.076156768782643	27.6432745816526	0	0	0	0	0	0	
147071035.517759	-0.0747041667891968	26.9698544878653	0	0	0	0	0	0	
148071535.767884	-0.0729099051910356	26.2802016371001	0	0	0	0	0	0	
149072036.018009	-0.0744454637321987	25.577348295101	0	0	0	0	0	0	
150072536.268134	-0.0752604591111798	24.9042370097072	0	0	0	0	0	0	
151073036.518259	-0.0743349221092209	24.2084393979499	0	0	0	0	0	0	
152073536.768384	-0.0742655572605746	23.5337537473974	0	0	0	0	0	0	
153074037.018509	-0.0743934043064935	22.8432531800949	0	0	0	0	0	0	
154074537.268634	-0.074703894424952	22.1554718081019	0	0	0	0	0	0	
155075037.518759	-0.0775538068980226	21.4808994187244	0	0	0	0	0	0	
156075537.768884	-0.0778340057421915	20.798589524606	0	0	0	0	0	0	
157076038.01901	-0.0786160526534339	20.1003352467899	0	0	0	0	0	0	
158076538.269135	-0.0821618318764101	19.4041698084141	0	0	0	0	0	0	
159077038.51926	-0.0879415289130481	18.7158669065552	0	0	0	0	0	0	
160077538.769385	-0.0928318710493722	17.9895654496449	0	0	0	0	0	0	
161078039.01951	-0.0996708589042523	17.2940253313148	0	0	0	0	0	0	
162078539.269635	-0.104422576027254	16.5868105752842	0	0	0	0	0	0	
163079039.51976	-0.108708323316032	15.8500003992162	0	0	0	0	0	0	
164079539.769885	-0.117617960187878	15.1215066536307	0	0	0	0	0	0	
165080040.02001	-0.124680417890332	14.3893603932262	0	0	0	0	0	0	
166080540.270135	-0.129222454912899	13.6610788240282	0	0	0	0	0	0	
167081040.52026	-0.13693640705121	12.8826204686199	0	0	0	0	0	0	
168081540.770385	-0.147282064200386	12.1487007031744	0	0	0	0	0	0	
169082041.02051	-0.152000330407057	11.4067924642814	0	0	0	0	0	0	
170082541.270635	-0.158002827106886	10.6512371355952	0	0	0	0	0	0	
171083041.52076	-0.162263736707734	9.91607898805779	0	0	0	0	0	0	
172083541.770885	-0.166163202931627	9.15042371001291	0	0	0	0	0	0	
173084042.02101	-0.174670385501859	8.39525208577594	0	0	0	0	0	0	
174084542.271135	-0.181669160038881	7.6485408970317	0	0	0	0	0	0	
175085042.52126	-0.1846254031482	6.91244676704972	0	0	0	0	0	0	
176085542.771385	-0.187357483621881	6.14415617718333	0	0	0	0	0	0	
177086043.021511	-0.195491763691322	5.40083673449203	0	0	0	0	0	0	
178086543.271636	-0.201542300741282	4.65991732821731	0	0	0	0	0	0	
179087043.521761	-0.206453597984513	3.92513184614058	0	0	0	0	0	0	
180087543.771886	-0.212295952395888	3.18310340710917	0	0	0	0	0	0	
181088044.022011	-0.215177751707885	2.44515719408725	0	0	0	0	0	0	
182088544.272136	-0.221945022399081	1.70380444021747	0	0	0	0	0	0	
183089044.522261	-0.230729539285535	0.971031786078857	0	0	0	0	0	0	
184089544.772386	-0.239054658358123	0.252913482468667	0	0	0	0	0	0	
185090045.022511	-0.2421569120768	-0.491610691316364	0	0	0	0	0	0	
186090545.272636	-0.251722004918705	-1.22761170296807	0	0	0	0	0	0	
187091045.522761	-0.263425538248691	-1.94266112213116	0	0	0	0	0	0	
188091545.772886	-0.272130382854617	-2.68287928568192	0	0	0	0	0	0	
189092046.023011	-0.281550457323555	-3.40829391208611	0	0	0	0	0	0	
190092546.273136	-0.291121047040446	-4.1532617765052	0	0	0	0	0	0	
191093046.523261	-0.306308640746175	-4.87960845291984	0	0	0	0	0	0	
192093546.773386	-0.320461321444855	-5.61480834231973	0	0	0	0	0	0	
193094047.023511	-0.333568329790979	-6.36312276919331	0	0	0	0	0	0	
194094547.273636	-0.352417199427708	-7.14122778396214	0	0	0	0	0	0	
195095047.523761	-0.368453276978253	-7.90694526135742	0	0	0	0	0	0	
196095547.773886	-0.390596406959083	-8.68523004446889	0	0	0	0	0	0	
197096048.024012	-0.412523493740536	-9.44354157950918	0	0	0	0	0	0	
198096548.274137	-0.43166830953984	-10.2160578775565	0	0	0	0	0	0	
199097048.524262	-0.454174332994106	-11.0418695384832	0	0	0	0	0	0	
200097548.774387	-0.47753004673533	-11.8263103101312	0	0	0	0	0	0	
201098049.024512	-0.505630844489906	-12.6584083113917	0	0	0	0	0	0	
202098549.274637	-0.530775042998235	-13.4803190391559	0	0	0	0	0	0	
203099049.524762	-0.555355846738256	-14.3257945567225	0	0	0	0	0	0	
204099549.774887	-0.589191633611319	-15.2036656367759	0	0	0	0	0	0	
205100050.025012	-0.626165463916741	-16.0305787768869	0	0	0	0	0	0	
206100550.275137	-0.659042722883461	-16.9013957533887	0	0	0	0	0	0	
207101050.525262	-0.687857229533811	-17.7410206449251	0	0	0	0	0	0	
208101550.775387	-0.723065490806495	-18.6315961484869	0	0	0	0	0	0	
209102051.025512	-0.757273961392712	-19.5253044285011	0	0	0	0	0	0	
210102551.275637	-0.795003247194615	-20.4016098239765	0	0	0	0	0	0	
211103051.525762	-0.832861172638863	-21.2865634324658	0	0	0	0	0	0	
212103551.775887	-0.865633605149561	-22.2052157897101	0	0	0	0	0	0	
213104052.026012	-0.909540852178351	-23.1514018386125	0	0	0	0	0	0	
214104552.276137	-0.963148024848248	-24.071010185604	0	0	0	0	0	0	
215105052.526262	-1.01200908066991	-24.9099423887969	0	0	0	0	0	0	
216105552.776387	-1.04981062896276	-25.7813935876621	0	0	0	0	0	0	
217106053.026513	-1.10105718712426	-26.7124126242848	0	0	0	0	0	0	
218106553.276638	-1.15486608556036	-27.611050513138	0	0	0	0	0	0	
219107053.526763	-1.1984622075073	-28.4701921296316	0	0	0	0	0	0	
220107553.776888	-1.25846336244393	-29.4360395334228	0	0	0	0	0	0	
221108054.027013	-1.32321574775739	-30.3298428408096	0	0	0	0	0	0	
222108554.277138	-1.4011389787701	-31.2870293049466	0	0	0	0	0	0	
223109054.527263	-1.48446968709836	-32.0977540529431	0	0	0	0	0	0	
224109554.777388	-1.58160941262686	-32.8696073269155	0	0	0	0	0	0	
225110055.027513	-1.65890045360553	-33.4115866202156	0	0	0	0	0	0	
226110555.277638	-1.71053144443775	-34.0954522137435	0	0	0	0	0	0	
227111055.527763	-1.78435368182373	-34.851564391273	0	0	0	0	0	0	
228111555.777888	-1.84444561671567	-35.5624238817586	0	0	0	0	0	0	
229112056.028013	-1.92641262936033	-36.3289909847766	0	0	0	0	0	0	
230112556.278138	-1.98746003587767	-37.0180348749995	0	0	0	0	0	0	
231113056.528263	-2.06869025055336	-37.8852705657081	0	0	0	0	0	0	
232113556.778388	-2.16356835970882	-38.6279816511461	0	0	0	0	0	0	
233114057.028513	-2.23766585683273	-39.2895052641467	0	0	0	0	0	0	
234114557.278638	-2.31926624603378	-40.1424610595113	0	0	0	0	0	0	
235115057.528763	-2.41739385662687	-40.9515015348375	0	0	0	0	0	0	
236115557.778888	-2.52093840490577	-41.7677778656418	0	0	0	0	0	0	
237116058.029014	-2.63647372982442	-42.4806318850803	0	0	0	0	0	0	
238116558.279139	-2.75568719691156	-43.1107856825755	0	0	0	0	0	0	
239117058.529264	-2.8485784340806	-43.7077715060788	0	0	0	0	0	0	
240117558.779389	-2.95882764532649	-44.4434740921186	0	0	0	0	0	0	
241118059.029514	-3.08977952050404	-45.1160652774545	0	0	0	0	0	0	
242118559.279639	-3.20728641136558	-45.5755562002381	0	0	0	0	0	0	
243119059.529764	-3.28638377345796	-46.1448570886254	0	0	0	0	0	0	
244119559.779889	-3.41355003395649	-46.9398537705519	0	0	0	0	0	0	
245120060.030014	-3.55350740668498	-47.3714693093661	0	0	0	0	0	0	
246120560.280139	-3.64076149368141	-47.8719728202219	0	0	0	0	0	0	
247121060.530264	-3.78123637229775	-48.4264111206027	0	0	0	0	0	0	
248121560.780389	-3.86879437748702	-48.7719770175717	0	0	0	0	0	0	
249122061.030514	-3.97323248205613	-49.4472017791752	0	0	0	0	0	0	
250122561.280639	-4.10352108204256	-50.0375779537383	0	0	0	0	0	0	
251123061.530764	-4.23671686304618	-50.3019248026948	0	0	0	0	0	0	
252123561.780889	-4.3204576954436	-50.5385236172409	0	0	0	0	0	0	
253124062.031014	-4.40833622046452	-51.020368640679	0	0	0	0	0	0	
254124562.281139	-4.49787975539682	-51.513514828722	0	0	0	0	0	0	
255125062.531264	-4.60801900366326	-52.0290606096113	0	0	0	0	0	0	
256125562.78139	-4.72554881851906	-52.3764953704689	0	0	0	0	0	0	
257126063.031515	-4.80797968356678	-52.7574384259081	0	0	0	0	0	0	
258126563.28164	-4.92462572232545	-53.3308338819259	0	0	0	0	0	0	
259127063.531765	-5.08316848359282	-53.4366492256828	0	0	0	0	0	0	
260127563.78189	-5.15070132538641	-53.2470191054112	0	0	0	0	0	0	
261128064.032015	-5.1688168991293	-53.659801920582	0	0	0	0	0	0	
262128564.28214	-5.24818275501046	-54.2809656800126	0	0	0	0	0	0	
263129064.532265	-5.36261251579584	-54.8353098216935	0	0	0	0	0	0	
264129564.78239	-5.49550948962471	-55.075831350675	0	0	0	0	0	0	
265130065.032515	-5.58624723878993	-55.3358761888826	0	0	0	0	0	0	
266130565.28264	-5.70585568523893	-55.6235484978326	0	0	0	0	0	0	
267131065.532765	-5.81746412377302	-55.7727158211173	0	0	0	0	0	0	
268131565.78289	-5.90989879727103	-55.7229435842402	0	0	0	0	0	0	
269132066.033015	-5.94460269619789	-55.825668274651	0	0	0	0	0	0	
270132566.28314	-5.98349607054439	-56.4987895360007	0	0	0	0	0	0	
271133066.533265	-6.09641587725628	-56.9932803272083	0	0	0	0	0	0	
272133566.78339	-6.2165364745228	-57.4277669587758	0	0	0	0	0	0	
273134067.033515	-6.34908420734294	-57.7562873293961	0	0	0	0	0	0	
274134567.28364	-6.44875200806569	-57.8180433887444	0	0	0	0	0	0	
275135067.533765	-6.54087579801814	-57.9195383405426	0	0	0	0	0	0	
276135567.783891	-6.60567504199712	-58.1392107971808	0	0	0	0	0	0	
277136068.034016	-6.68570607888409	-58.3313232600365	0	0	0	0	0	0	
278136568.284141	-6.72733827638422	-58.8391960632054	0	0	0	0	0	0	
279137068.534266	-6.836898135354	-59.3156001434291	0	0	0	0	0	0	
280137568.784391	-6.92427979869564	-59.6578773569895	0	0	0	0	0	0	
281138069.034516	-7.0356379527266	-60.2262850978528	0	0	0	0	0	0	
282138569.284641	-7.17059770949153	-60.5280841818894	0	0	0	0	0	0	
283139069.534766	-7.28465238736685	-60.5579305515311	0	0	0	0	0	0	
284139569.784891	-7.33972298638016	-60.8140282589167	0	0	0	0	0	0	
285140070.035016	-7.43967632683256	-60.9679078447599	0	0	0	0	0	0	
286140570.285141	-7.45980657326346	-61.2335453222538	0	0	0	0	0	0	
287141070.535266	-7.54902259072543	-62.2136311725599	0	0	0	0	0	0	
288141570.785391	-7.66414972030176	-62.2885058989402	0	0	0	0	0	0	
289142071.035516	-7.74649359455925	-62.8754291794454	0	0	0	0	0	0	
290142571.285641	-7.88643136642343	-63.499366010026	0	0	0	0	0	0	
291143071.535766	-8.03618763399235	-63.5046247930313	0	0	0	0	0	0	
292143571.785891	-8.10212889373648	-63.6713259548452	0	0	0	0	0	0	
293144072.036016	-8.17302064279302	-63.7343180241576	0	0	0	0	0	0	
294144572.286141	-8.22654021653823	-64.2832064086273	0	0	0	0	0	0	
295145072.536267	-8.3457261129692	-64.8334405771686	0	0	0	0	0	0	
