!Keysight Technologies N9923A: A.08.09
!Date: Thursday, 02 August 2018 08:16:03
!Timezone: (GMT+08:00) Kuala Lumpur, Singapore
!Model: N9923A
!Serial: MY52412143
!GPS Latitude: 
!GPS Longitude: 
!GPS TimeStamp: 0001-01-01 00:00:00Z
!GPS Seconds Since Last Read: 0
!CHECKSUM:1668752217
!Correction: S11(ON U)S21()S12()S22()
!S2P File: Measurements:S11,S21,S12,S22:
# Hz S DB R 50
2000000	-4.25291081181088	24.6024307305606	0	0	0	0	0	0	
3000333.44448149	-3.9487750601461	13.7891349894083	0	0	0	0	0	0	
4000666.88896299	-3.82398892136164	6.95353906645691	0	0	0	0	0	0	
5001000.33344448	-3.75836286998025	1.94820674270073	0	0	0	0	0	0	
6001333.77792598	-3.72849648243744	-2.12601387928002	0	0	0	0	0	0	
7001667.22240747	-3.70817771712851	-5.5857471098781	0	0	0	0	0	0	
8002000.66688896	-3.69652191843771	-8.75215662444435	0	0	0	0	0	0	
9002334.11137046	-3.68953956475706	-11.6673612071104	0	0	0	0	0	0	
10002667.555852	-3.68873675036175	-14.4443860897309	0	0	0	0	0	0	
11003001.0003334	-3.68841102344448	-17.067314062124	0	0	0	0	0	0	
12003334.4448149	-3.68567044342366	-19.6187772441761	0	0	0	0	0	0	
13003667.8892964	-3.68698338333711	-22.1011262082198	0	0	0	0	0	0	
14004001.3337779	-3.6874616245909	-24.5295901090195	0	0	0	0	0	0	
15004334.7782594	-3.68477463818672	-26.9243490961415	0	0	0	0	0	0	
16004668.2227409	-3.68668426042181	-29.2630690290541	0	0	0	0	0	0	
17005001.6672224	-3.68748533628964	-31.5727514210562	0	0	0	0	0	0	
18005335.1117039	-3.68545108939266	-33.8475049725977	0	0	0	0	0	0	
19005668.5561854	-3.68470948232134	-36.1511591003583	0	0	0	0	0	0	
20006002.0006669	-3.68275616379214	-38.3969771226098	0	0	0	0	0	0	
21006335.4451484	-3.68186789998331	-40.6693800630051	0	0	0	0	0	0	
22006668.8896299	-3.67589489293856	-42.9090590843646	0	0	0	0	0	0	
23007002.3341114	-3.66964146491514	-45.1321595405742	0	0	0	0	0	0	
24007335.7785929	-3.66682281327902	-47.3902566881423	0	0	0	0	0	0	
25007669.2230743	-3.66860196911347	-49.6003687229312	0	0	0	0	0	0	
26008002.6675558	-3.6593223239097	-51.815544807513	0	0	0	0	0	0	
27008336.1120373	-3.65422967141303	-54.0440693678087	0	0	0	0	0	0	
28008669.5565188	-3.64964861108468	-56.2597301483339	0	0	0	0	0	0	
29009003.0010003	-3.63936231990809	-58.4803244154703	0	0	0	0	0	0	
30009336.4454818	-3.64214624239783	-60.6784254226844	0	0	0	0	0	0	
31009669.8899633	-3.63641966017301	-62.9334318154614	0	0	0	0	0	0	
32010003.3344448	-3.63068042699953	-65.1456961539629	0	0	0	0	0	0	
33010336.7789263	-3.62661858832035	-67.3759455265728	0	0	0	0	0	0	
34010670.2234078	-3.62447311626832	-69.614762452949	0	0	0	0	0	0	
35011003.6678893	-3.62012568742799	-71.9046845346436	0	0	0	0	0	0	
36011337.1123708	-3.61911916498172	-74.1703787172938	0	0	0	0	0	0	
37011670.5568523	-3.61220772290246	-76.4370092891904	0	0	0	0	0	0	
38012004.0013337	-3.61117553600618	-78.727294019612	0	0	0	0	0	0	
39012337.4458152	-3.60763503670223	-81.0874749259298	0	0	0	0	0	0	
40012670.8902967	-3.60213229146801	-83.4200079272953	0	0	0	0	0	0	
41013004.3347782	-3.5939755293959	-85.7522450752267	0	0	0	0	0	0	
42013337.7792597	-3.58798292374345	-88.1090190647478	0	0	0	0	0	0	
43013671.2237412	-3.58061608892289	-90.4780663200921	0	0	0	0	0	0	
44014004.6682227	-3.57782168165682	-92.8549023671631	0	0	0	0	0	0	
45014338.1127042	-3.56899119395566	-95.2392665106802	0	0	0	0	0	0	
46014671.5571857	-3.55976166036259	-97.6461556374419	0	0	0	0	0	0	
47015005.0016672	-3.55508763480767	-100.071437485134	0	0	0	0	0	0	
48015338.4461487	-3.54518587244264	-102.495173309315	0	0	0	0	0	0	
49015671.8906302	-3.53869712414804	-104.981017893818	0	0	0	0	0	0	
50016005.3351116	-3.5291265739324	-107.44512715074	0	0	0	0	0	0	
51016338.7795931	-3.51894324457753	-109.945191950604	0	0	0	0	0	0	
52016672.2240746	-3.50912222875248	-112.459928769056	0	0	0	0	0	0	
53017005.6685561	-3.50100882600715	-115.0059364609	0	0	0	0	0	0	
54017339.1130376	-3.49300022537345	-117.595808684981	0	0	0	0	0	0	
55017672.5575191	-3.48502964715924	-120.168228550331	0	0	0	0	0	0	
56018006.0020006	-3.47499922915799	-122.786792902282	0	0	0	0	0	0	
57018339.4464821	-3.4659315240395	-125.397523158237	0	0	0	0	0	0	
58018672.8909636	-3.45399673312379	-128.043172812724	0	0	0	0	0	0	
59019006.3354451	-3.4469098555822	-130.722727237809	0	0	0	0	0	0	
60019339.7799266	-3.43867600095337	-133.440940204348	0	0	0	0	0	0	
61019673.2244081	-3.43066386237179	-136.193036863838	0	0	0	0	0	0	
62020006.6688896	-3.4228948169052	-138.963200952784	0	0	0	0	0	0	
63020340.113371	-3.42174212741655	-141.773658964004	0	0	0	0	0	0	
64020673.5578525	-3.41534590341238	-144.615169734864	0	0	0	0	0	0	
65021007.002334	-3.41594155746067	-147.502398066305	0	0	0	0	0	0	
66021340.4468155	-3.41789941535744	-150.418898926443	0	0	0	0	0	0	
67021673.891297	-3.41855681802751	-153.373500226327	0	0	0	0	0	0	
68022007.3357785	-3.42309105595155	-156.366961686104	0	0	0	0	0	0	
69022340.78026	-3.42190017183747	-159.389263111455	0	0	0	0	0	0	
70022674.2247415	-3.42804273062332	-162.477403066613	0	0	0	0	0	0	
71023007.669223	-3.42430655425173	-165.590459660506	0	0	0	0	0	0	
72023341.1137045	-3.42368187048085	-168.778895153516	0	0	0	0	0	0	
73023674.558186	-3.42593526622794	-172.035526067799	0	0	0	0	0	0	
74024008.0026675	-3.42995395123884	-175.35694887481	0	0	0	0	0	0	
75024341.4471489	-3.43345325880039	-178.689547135794	0	0	0	0	0	0	
76024674.8916304	-3.44108447058485	177.896543585578	0	0	0	0	0	0	
77025008.3361119	-3.44462748721247	174.422023077902	0	0	0	0	0	0	
78025341.7805934	-3.44841780838332	170.897333931405	0	0	0	0	0	0	
79025675.2250749	-3.45295480299347	167.264253343663	0	0	0	0	0	0	
80026008.6695564	-3.46125494178674	163.583437171731	0	0	0	0	0	0	
81026342.1140379	-3.46884823899175	159.806926811855	0	0	0	0	0	0	
82026675.5585194	-3.48416553494209	155.927029054391	0	0	0	0	0	0	
83027009.0030009	-3.50309575187106	151.996048900888	0	0	0	0	0	0	
84027342.4474824	-3.52631763164062	148.014539992869	0	0	0	0	0	0	
85027675.8919639	-3.55125945280297	143.916833715003	0	0	0	0	0	0	
86028009.3364454	-3.58430420865869	139.690147015533	0	0	0	0	0	0	
87028342.7809269	-3.62401374570534	135.449212813336	0	0	0	0	0	0	
88028676.2254083	-3.66777264530766	131.099663766208	0	0	0	0	0	0	
89029009.6698898	-3.71392025225564	126.689506070865	0	0	0	0	0	0	
90029343.1143713	-3.75102056418869	122.176505092701	0	0	0	0	0	0	
91029676.5588528	-3.79655679130357	117.355059807751	0	0	0	0	0	0	
92030010.0033343	-3.86227467785284	112.39343570424	0	0	0	0	0	0	
93030343.4478158	-3.94795444285853	107.268441660599	0	0	0	0	0	0	
94030676.8922973	-4.05761115630108	102.082314880691	0	0	0	0	0	0	
95031010.3367788	-4.17520518941672	96.751479238286	0	0	0	0	0	0	
96031343.7812603	-4.31900839867745	91.3008798509442	0	0	0	0	0	0	
97031677.2257418	-4.48507339837355	85.7518999939896	0	0	0	0	0	0	
98032010.6702233	-4.67752754576645	80.1122540502458	0	0	0	0	0	0	
99032344.1147048	-4.91779336963796	74.5330197430629	0	0	0	0	0	0	
100032677.559186	-5.18021724881449	69.1268486332223	0	0	0	0	0	0	
101033011.003668	-5.42607409751444	64.0570651205289	0	0	0	0	0	0	
102033344.448149	-5.64086476625444	58.9009643702872	0	0	0	0	0	0	
103033677.892631	-5.84578488049463	53.5904000032651	0	0	0	0	0	0	
104034011.337112	-6.07432883521833	48.2666113323412	0	0	0	0	0	0	
105034344.781594	-6.27138233407356	43.0340792956287	0	0	0	0	0	0	
106034678.226075	-6.45204173189371	37.6655084555368	0	0	0	0	0	0	
107035011.670557	-6.62057600873662	32.1305521847779	0	0	0	0	0	0	
108035345.115038	-6.80449441017671	26.5332393475462	0	0	0	0	0	0	
109035678.55952	-6.98188829945012	20.9099499699916	0	0	0	0	0	0	
110036012.004001	-7.15018241521272	15.2934025078082	0	0	0	0	0	0	
111036345.448483	-7.28098935316728	9.71725615001775	0	0	0	0	0	0	
112036678.892964	-7.40322820663747	3.76196276806733	0	0	0	0	0	0	
113037012.337446	-7.57437408007669	-2.29049223606119	0	0	0	0	0	0	
114037345.781927	-7.761947647113	-8.27830356803045	0	0	0	0	0	0	
115037679.226409	-7.96424521092676	-13.8761941659834	0	0	0	0	0	0	
116038012.67089	-8.1026777833597	-19.3926650507076	0	0	0	0	0	0	
117038346.115372	-8.20501283506511	-25.045167394396	0	0	0	0	0	0	
118038679.559853	-8.32731847863996	-30.9112462060339	0	0	0	0	0	0	
119039013.004335	-8.46147176335221	-36.6862701900009	0	0	0	0	0	0	
120039346.448816	-8.5955138005054	-42.1873940872543	0	0	0	0	0	0	
121039679.893298	-8.68366276273317	-47.5832146326011	0	0	0	0	0	0	
122040013.337779	-8.75292523548757	-53.1081939011207	0	0	0	0	0	0	
123040346.782261	-8.84918382721535	-58.662718306239	0	0	0	0	0	0	
124040680.226742	-8.9646978246617	-64.0181160728822	0	0	0	0	0	0	
125041013.671224	-9.04980335906063	-68.9857466884299	0	0	0	0	0	0	
126041347.115705	-9.1229664034311	-73.8247280214244	0	0	0	0	0	0	
127041680.560187	-9.16440894244832	-78.4950826715108	0	0	0	0	0	0	
128042014.004668	-9.18273502561051	-83.1759326439473	0	0	0	0	0	0	
129042347.44915	-9.17740502205054	-87.8346193903226	0	0	0	0	0	0	
130042680.893631	-9.19528510613994	-92.5979658556796	0	0	0	0	0	0	
131043014.338113	-9.21117152024861	-96.9323725066817	0	0	0	0	0	0	
132043347.782594	-9.20461923102894	-101.290186381611	0	0	0	0	0	0	
133043681.227075	-9.18460466420153	-105.619323538103	0	0	0	0	0	0	
134044014.671557	-9.18589266293357	-109.900795179009	0	0	0	0	0	0	
135044348.116038	-9.21242172505526	-113.990791100425	0	0	0	0	0	0	
136044681.56052	-9.22690515459443	-117.798911714601	0	0	0	0	0	0	
137045015.005001	-9.21755101030925	-121.350094755574	0	0	0	0	0	0	
138045348.449483	-9.17083199521153	-124.840664064622	0	0	0	0	0	0	
139045681.893964	-9.11266802295115	-128.40127847497	0	0	0	0	0	0	
140046015.338446	-9.07219838456335	-132.035906128936	0	0	0	0	0	0	
141046348.782927	-9.03497852107316	-135.506835360553	0	0	0	0	0	0	
142046682.227409	-8.98800828359699	-138.866147611313	0	0	0	0	0	0	
143047015.67189	-8.91739676493305	-142.242726462234	0	0	0	0	0	0	
144047349.116372	-8.85936916626268	-145.772071574035	0	0	0	0	0	0	
145047682.560853	-8.82852631977671	-149.269558181683	0	0	0	0	0	0	
146048016.005335	-8.81415063717494	-152.557885143205	0	0	0	0	0	0	
147048349.449816	-8.77531747101542	-155.668157138202	0	0	0	0	0	0	
148048682.894298	-8.73697836601736	-158.828374771102	0	0	0	0	0	0	
149049016.338779	-8.69258655105155	-161.885670939004	0	0	0	0	0	0	
150049349.783261	-8.63864723137798	-164.964832919478	0	0	0	0	0	0	
151049683.227742	-8.59648523442359	-168.06632080503	0	0	0	0	0	0	
152050016.672224	-8.5498741391958	-171.105847003216	0	0	0	0	0	0	
153050350.116705	-8.50733241683575	-174.105147763846	0	0	0	0	0	0	
154050683.561187	-8.47028417003487	-176.985117242231	0	0	0	0	0	0	
155051017.005668	-8.42522527052985	-179.951489998911	0	0	0	0	0	0	
156051350.45015	-8.38276087551311	177.160158544045	0	0	0	0	0	0	
157051683.894631	-8.36204495003712	174.261894965571	0	0	0	0	0	0	
158052017.339113	-8.33875540928346	171.64681195513	0	0	0	0	0	0	
159052350.783594	-8.29159704542185	168.929860385322	0	0	0	0	0	0	
160052684.228076	-8.25599286515532	166.225727108872	0	0	0	0	0	0	
161053017.672557	-8.2186667816039	163.548752421188	0	0	0	0	0	0	
162053351.117039	-8.19087187977042	160.865639872552	0	0	0	0	0	0	
163053684.56152	-8.17973233433563	158.265235320989	0	0	0	0	0	0	
164054018.006002	-8.15442523003842	155.809941694481	0	0	0	0	0	0	
165054351.450483	-8.12519523202448	153.354576195798	0	0	0	0	0	0	
166054684.894965	-8.08807696307901	150.808073516953	0	0	0	0	0	0	
167055018.339446	-8.08771451669865	148.273113056858	0	0	0	0	0	0	
168055351.783928	-8.07357137322994	145.95058084311	0	0	0	0	0	0	
169055685.228409	-8.05069708325747	143.573733189983	0	0	0	0	0	0	
170056018.672891	-8.02333049986994	141.198225693798	0	0	0	0	0	0	
171056352.117372	-7.99260539383598	138.766432821921	0	0	0	0	0	0	
172056685.561854	-7.98036121851958	136.244270264436	0	0	0	0	0	0	
173057019.006335	-7.98430552142424	133.852509534297	0	0	0	0	0	0	
174057352.450817	-7.9931071254117	131.438738115223	0	0	0	0	0	0	
175057685.895298	-7.99008122469682	129.2194669982	0	0	0	0	0	0	
176058019.33978	-7.98183267116914	126.873960480175	0	0	0	0	0	0	
177058352.784261	-7.98106545021961	124.564453548441	0	0	0	0	0	0	
178058686.228743	-7.98564780209324	122.340029332826	0	0	0	0	0	0	
179059019.673224	-7.97887183940231	120.13924589682	0	0	0	0	0	0	
180059353.117706	-7.97463793723476	118.009875526057	0	0	0	0	0	0	
181059686.562187	-7.95611407039132	115.837122804555	0	0	0	0	0	0	
182060020.006669	-7.93198160025102	113.585274370752	0	0	0	0	0	0	
183060353.45115	-7.92190922480545	111.338918343926	0	0	0	0	0	0	
184060686.895632	-7.9294567934788	109.030986339654	0	0	0	0	0	0	
185061020.340113	-7.94095199382529	106.966843926911	0	0	0	0	0	0	
186061353.784595	-7.9283641892743	104.902837792139	0	0	0	0	0	0	
187061687.229076	-7.92799973428141	102.775454865945	0	0	0	0	0	0	
188062020.673558	-7.9298890120514	100.692124140545	0	0	0	0	0	0	
189062354.118039	-7.95377408661968	98.7422891179211	0	0	0	0	0	0	
190062687.562521	-7.93331493926028	96.97740548765	0	0	0	0	0	0	
191063021.007002	-7.8936450759222	95.0440168323813	0	0	0	0	0	0	
192063354.451484	-7.86952973408802	92.9936996315332	0	0	0	0	0	0	
193063687.895965	-7.86160668669561	91.0031247172677	0	0	0	0	0	0	
194064021.340447	-7.85587790540151	89.0963119253856	0	0	0	0	0	0	
195064354.784928	-7.83636741723295	87.3383007039605	0	0	0	0	0	0	
196064688.229409	-7.80151839194782	85.4631194800134	0	0	0	0	0	0	
197065021.673891	-7.75969161380849	83.5453286203904	0	0	0	0	0	0	
198065355.118372	-7.74243935950561	81.5664485574853	0	0	0	0	0	0	
199065688.562854	-7.72855292132047	79.6677522653979	0	0	0	0	0	0	
200066022.007335	-7.71994980139404	77.8858049561507	0	0	0	0	0	0	
201066355.451817	-7.69655187670131	76.0573489176403	0	0	0	0	0	0	
202066688.896298	-7.66584937708716	74.2175701182302	0	0	0	0	0	0	
203067022.34078	-7.6257730151797	72.3359400843898	0	0	0	0	0	0	
204067355.785261	-7.59967062608761	70.2109836021462	0	0	0	0	0	0	
205067689.229743	-7.5984474903226	68.2630503993023	0	0	0	0	0	0	
206068022.674224	-7.59905855499414	66.3894035960138	0	0	0	0	0	0	
207068356.118706	-7.56895715339329	64.5763107121063	0	0	0	0	0	0	
208068689.563187	-7.51632799118534	62.51347138222	0	0	0	0	0	0	
209069023.007669	-7.50820859509235	60.3040894773351	0	0	0	0	0	0	
210069356.45215	-7.51356335655709	58.3582972629178	0	0	0	0	0	0	
211069689.896632	-7.49812661109081	56.4172390965368	0	0	0	0	0	0	
212070023.341113	-7.47649480771765	54.4464368737552	0	0	0	0	0	0	
213070356.785595	-7.4602639081098	52.3300568360169	0	0	0	0	0	0	
214070690.230076	-7.45216339712862	50.2596183666482	0	0	0	0	0	0	
215071023.674558	-7.43498730815617	48.2376686022104	0	0	0	0	0	0	
216071357.119039	-7.43776610840139	46.1465452287214	0	0	0	0	0	0	
217071690.563521	-7.43358529212986	44.2356383892985	0	0	0	0	0	0	
218072024.008002	-7.40815725166707	42.2374956806462	0	0	0	0	0	0	
219072357.452484	-7.39917362451909	40.167046451299	0	0	0	0	0	0	
220072690.896965	-7.38995810306482	38.1157990442635	0	0	0	0	0	0	
221073024.341447	-7.39590847547368	36.1705274469812	0	0	0	0	0	0	
222073357.785928	-7.36922984560172	34.2071517241298	0	0	0	0	0	0	
223073691.23041	-7.35800374007756	32.1336556618601	0	0	0	0	0	0	
224074024.674891	-7.36043555003596	30.0802874946446	0	0	0	0	0	0	
225074358.119373	-7.35600047078489	28.140772126868	0	0	0	0	0	0	
226074691.563854	-7.36607618913908	26.1594540823596	0	0	0	0	0	0	
227075025.008336	-7.35290566532476	24.2457194465313	0	0	0	0	0	0	
228075358.452817	-7.36224736124735	22.2870393198112	0	0	0	0	0	0	
229075691.897299	-7.36153609719917	20.3448861241569	0	0	0	0	0	0	
230076025.34178	-7.37389875263718	18.4998749587305	0	0	0	0	0	0	
231076358.786262	-7.38807695009239	16.660302016728	0	0	0	0	0	0	
232076692.230743	-7.37087533866045	14.8679513240418	0	0	0	0	0	0	
233077025.675225	-7.361828553484	12.8767128721979	0	0	0	0	0	0	
234077359.119706	-7.38092303800531	10.8933196145346	0	0	0	0	0	0	
235077692.564188	-7.401487897786	8.97368748291152	0	0	0	0	0	0	
236078026.008669	-7.42369874603594	7.15055805291562	0	0	0	0	0	0	
237078359.453151	-7.43507327352796	5.27479051485927	0	0	0	0	0	0	
238078692.897632	-7.46366372747258	3.3942488270234	0	0	0	0	0	0	
239079026.342114	-7.48162452065852	1.5141627475451	0	0	0	0	0	0	
240079359.786595	-7.50777752241073	-0.398517856103889	0	0	0	0	0	0	
241079693.231077	-7.53134295303981	-2.17003317627024	0	0	0	0	0	0	
242080026.675558	-7.54538671147445	-4.03588328521034	0	0	0	0	0	0	
243080360.12004	-7.56803033710257	-5.90221305538271	0	0	0	0	0	0	
244080693.564521	-7.58530428720663	-7.80873952844748	0	0	0	0	0	0	
245081027.009003	-7.60629821075656	-9.70729799347324	0	0	0	0	0	0	
246081360.453484	-7.63416727678057	-11.5899646242401	0	0	0	0	0	0	
247081693.897966	-7.65131914327591	-13.4319614350499	0	0	0	0	0	0	
248082027.342447	-7.6679546765865	-15.2948422874327	0	0	0	0	0	0	
249082360.786929	-7.68862368543083	-17.1791338142253	0	0	0	0	0	0	
250082694.23141	-7.70355864952502	-19.0558909393773	0	0	0	0	0	0	
251083027.675892	-7.72932931775063	-20.8832220342027	0	0	0	0	0	0	
252083361.120373	-7.74125433595572	-22.7430353505917	0	0	0	0	0	0	
253083694.564855	-7.7563821209362	-24.5746221560961	0	0	0	0	0	0	
254084028.009336	-7.77108952445676	-26.4285634987048	0	0	0	0	0	0	
255084361.453818	-7.7810645533525	-28.2055427070302	0	0	0	0	0	0	
256084694.898299	-7.79780014582181	-30.0983334090529	0	0	0	0	0	0	
257085028.342781	-7.81790430113871	-31.8897820902377	0	0	0	0	0	0	
258085361.787262	-7.8165134612115	-33.5473286364629	0	0	0	0	0	0	
259085695.231743	-7.81280741940128	-35.3983470545546	0	0	0	0	0	0	
260086028.676225	-7.80764966595924	-37.2929217300463	0	0	0	0	0	0	
261086362.120706	-7.82337734454874	-39.244378202713	0	0	0	0	0	0	
262086695.565188	-7.86124806393231	-41.1223849878272	0	0	0	0	0	0	
263087029.009669	-7.88201204820001	-42.7905703750246	0	0	0	0	0	0	
264087362.454151	-7.89139959025698	-44.5913322410718	0	0	0	0	0	0	
265087695.898632	-7.90847871198627	-46.4246806657036	0	0	0	0	0	0	
266088029.343114	-7.93168110208961	-48.2522503837522	0	0	0	0	0	0	
267088362.787595	-7.96185245118035	-50.056930195266	0	0	0	0	0	0	
268088696.232077	-7.98465681216779	-51.7426924196589	0	0	0	0	0	0	
269089029.676558	-7.99609335281087	-53.530802238957	0	0	0	0	0	0	
270089363.12104	-8.01691053258973	-55.3676588808167	0	0	0	0	0	0	
271089696.565521	-8.04004421083388	-57.1229482927472	0	0	0	0	0	0	
272090030.010003	-8.05186910276858	-58.9470773174781	0	0	0	0	0	0	
273090363.454484	-8.06925189839515	-60.7674681655945	0	0	0	0	0	0	
274090696.898966	-8.07987368175787	-62.5496972788594	0	0	0	0	0	0	
275091030.343447	-8.07350710745537	-64.4276389455214	0	0	0	0	0	0	
276091363.787929	-8.08583507753845	-66.4676597523853	0	0	0	0	0	0	
277091697.23241	-8.12911385233418	-68.4281256777293	0	0	0	0	0	0	
278092030.676892	-8.15335818095619	-70.2013825702323	0	0	0	0	0	0	
279092364.121373	-8.1682102367355	-72.0917825598249	0	0	0	0	0	0	
280092697.565855	-8.17714066867342	-74.0078025997127	0	0	0	0	0	0	
281093031.010336	-8.20035750973385	-75.8894831718181	0	0	0	0	0	0	
282093364.454818	-8.21218134691205	-77.8091939212827	0	0	0	0	0	0	
283093697.899299	-8.21895082607352	-79.7528514953488	0	0	0	0	0	0	
284094031.343781	-8.25436982538339	-81.66027458955	0	0	0	0	0	0	
285094364.788262	-8.2507101033516	-83.4914047325566	0	0	0	0	0	0	
286094698.232744	-8.26419067999827	-85.4979451940064	0	0	0	0	0	0	
287095031.677225	-8.2928878344224	-87.4726834385604	0	0	0	0	0	0	
288095365.121707	-8.30208265859133	-89.3814194036606	0	0	0	0	0	0	
289095698.566188	-8.33637645172661	-91.3249241213292	0	0	0	0	0	0	
290096032.01067	-8.36175430732195	-93.189508227743	0	0	0	0	0	0	
291096365.455151	-8.38249146056361	-95.0128280032147	0	0	0	0	0	0	
292096698.899633	-8.3990105801929	-96.8070815848949	0	0	0	0	0	0	
293097032.344114	-8.40828262489573	-98.7954693094339	0	0	0	0	0	0	
294097365.788596	-8.45712227362987	-100.625737506177	0	0	0	0	0	0	
295097699.233077	-8.48063696104945	-102.406147495272	0	0	0	0	0	0	
296098032.677559	-8.49911964267159	-104.174675214469	0	0	0	0	0	0	
297098366.12204	-8.50903269427138	-106.063097879959	0	0	0	0	0	0	
