!Keysight Technologies N9923A: A.08.09
!Date: Thursday, 02 August 2018 08:17:15
!Timezone: (GMT+08:00) Kuala Lumpur, Singapore
!Model: N9923A
!Serial: MY52412143
!GPS Latitude: 
!GPS Longitude: 
!GPS TimeStamp: 0001-01-01 00:00:00Z
!GPS Seconds Since Last Read: 0
!CHECKSUM:2110258566
!Correction: S11(ON U)S21()S12()S22()
!S2P File: Measurements:S11,S21,S12,S22:
# Hz S DB R 50
2000000	-4.2535339297148	24.68117402562	0	0	0	0	0	0	
3000333.44448149	-3.94319445173499	13.8859061344979	0	0	0	0	0	0	
4000666.88896299	-3.81325422878017	7.0476998862829	0	0	0	0	0	0	
5001000.33344448	-3.74679755089767	2.03225592051334	0	0	0	0	0	0	
6001333.77792598	-3.71588980829556	-2.02132094988448	0	0	0	0	0	0	
7001667.22240747	-3.69795457278473	-5.49905502746945	0	0	0	0	0	0	
8002000.66688896	-3.68761621983896	-8.67118987225833	0	0	0	0	0	0	
9002334.11137046	-3.68118283001436	-11.5886130524095	0	0	0	0	0	0	
10002667.555852	-3.68162732541892	-14.3676657591901	0	0	0	0	0	0	
11003001.0003334	-3.68059797021108	-16.9876147870101	0	0	0	0	0	0	
12003334.4448149	-3.68175705601892	-19.5518231337527	0	0	0	0	0	0	
13003667.8892964	-3.68223901028328	-22.0094620870408	0	0	0	0	0	0	
14004001.3337779	-3.68798121849927	-24.4326223292811	0	0	0	0	0	0	
15004334.7782594	-3.68461960029131	-26.8206583095209	0	0	0	0	0	0	
16004668.2227409	-3.68991180689883	-29.1519025397425	0	0	0	0	0	0	
17005001.6672224	-3.69091413635821	-31.4471714995222	0	0	0	0	0	0	
18005335.1117039	-3.69093220277499	-33.7259227157814	0	0	0	0	0	0	
19005668.5561854	-3.6877877579907	-36.0084961671081	0	0	0	0	0	0	
20006002.0006669	-3.68467862467867	-38.2690218444474	0	0	0	0	0	0	
21006335.4451484	-3.68325268417125	-40.5209701305933	0	0	0	0	0	0	
22006668.8896299	-3.67858727875442	-42.7561964667302	0	0	0	0	0	0	
23007002.3341114	-3.67349182926011	-44.9885429916529	0	0	0	0	0	0	
24007335.7785929	-3.66847746622791	-47.2259446064975	0	0	0	0	0	0	
25007669.2230743	-3.66995196332139	-49.4425242336872	0	0	0	0	0	0	
26008002.6675558	-3.66090658864505	-51.6621801075712	0	0	0	0	0	0	
27008336.1120373	-3.653349679679	-53.8856502874488	0	0	0	0	0	0	
28008669.5565188	-3.6486325472048	-56.1090094554696	0	0	0	0	0	0	
29009003.0010003	-3.64175232482194	-58.3133587875687	0	0	0	0	0	0	
30009336.4454818	-3.638240272899	-60.5210368190898	0	0	0	0	0	0	
31009669.8899633	-3.63280421712529	-62.770792006355	0	0	0	0	0	0	
32010003.3344448	-3.62984615267343	-64.9990807930632	0	0	0	0	0	0	
33010336.7789263	-3.62678889491745	-67.2428314973956	0	0	0	0	0	0	
34010670.2234078	-3.62163470451322	-69.4803519446412	0	0	0	0	0	0	
35011003.6678893	-3.61885541834296	-71.7816717479003	0	0	0	0	0	0	
36011337.1123708	-3.61818423005541	-74.0373033274503	0	0	0	0	0	0	
37011670.5568523	-3.61136278749063	-76.3095996795245	0	0	0	0	0	0	
38012004.0013337	-3.61323659322671	-78.6208212428894	0	0	0	0	0	0	
39012337.4458152	-3.61060972391993	-80.9616693423398	0	0	0	0	0	0	
40012670.8902967	-3.60378549550707	-83.3049965898763	0	0	0	0	0	0	
41013004.3347782	-3.60047801425799	-85.6378907526167	0	0	0	0	0	0	
42013337.7792597	-3.59406238090952	-87.9876411302088	0	0	0	0	0	0	
43013671.2237412	-3.58708897576385	-90.3605662461123	0	0	0	0	0	0	
44014004.6682227	-3.58354124456127	-92.7275263241715	0	0	0	0	0	0	
45014338.1127042	-3.57897390402045	-95.1042556686188	0	0	0	0	0	0	
46014671.5571857	-3.56847079221703	-97.5049091235004	0	0	0	0	0	0	
47015005.0016672	-3.56476320178683	-99.9312654924159	0	0	0	0	0	0	
48015338.4461487	-3.55665703904351	-102.346691814497	0	0	0	0	0	0	
49015671.8906302	-3.55514775571511	-104.824652591998	0	0	0	0	0	0	
50016005.3351116	-3.54397778226006	-107.289533144022	0	0	0	0	0	0	
51016338.7795931	-3.5340755924337	-109.776132724395	0	0	0	0	0	0	
52016672.2240746	-3.52637340492785	-112.285703440191	0	0	0	0	0	0	
53017005.6685561	-3.51830553279557	-114.801159207879	0	0	0	0	0	0	
54017339.1130376	-3.5141552119319	-117.390277728057	0	0	0	0	0	0	
55017672.5575191	-3.50654741154305	-119.947181095479	0	0	0	0	0	0	
56018006.0020006	-3.49571652343539	-122.55885270405	0	0	0	0	0	0	
57018339.4464821	-3.48944922739706	-125.154849524421	0	0	0	0	0	0	
58018672.8909636	-3.47900288470022	-127.81181868389	0	0	0	0	0	0	
59019006.3354451	-3.47350631317541	-130.480812575774	0	0	0	0	0	0	
60019339.7799266	-3.47057997417433	-133.181288091184	0	0	0	0	0	0	
61019673.2244081	-3.46645968488297	-135.910803221068	0	0	0	0	0	0	
62020006.6688896	-3.45994491905929	-138.65105377334	0	0	0	0	0	0	
63020340.113371	-3.46318999901073	-141.442459224199	0	0	0	0	0	0	
64020673.5578525	-3.46142059151764	-144.253269010489	0	0	0	0	0	0	
65021007.002334	-3.46527886340893	-147.122846111249	0	0	0	0	0	0	
66021340.4468155	-3.46859725652167	-149.998456684575	0	0	0	0	0	0	
67021673.891297	-3.46885907014093	-152.942754981033	0	0	0	0	0	0	
68022007.3357785	-3.47466701516096	-155.893267031253	0	0	0	0	0	0	
69022340.78026	-3.47740632754063	-158.901303002135	0	0	0	0	0	0	
70022674.2247415	-3.48431772440539	-161.978594524143	0	0	0	0	0	0	
71023007.669223	-3.48727109050557	-165.092251085589	0	0	0	0	0	0	
72023341.1137045	-3.49317029385186	-168.25837070712	0	0	0	0	0	0	
73023674.558186	-3.50317647939365	-171.467236178245	0	0	0	0	0	0	
74024008.0026675	-3.51212006295062	-174.705889096754	0	0	0	0	0	0	
75024341.4471489	-3.52033589434033	-178.016783789062	0	0	0	0	0	0	
76024674.8916304	-3.5324452500282	178.640677965472	0	0	0	0	0	0	
77025008.3361119	-3.54383339700751	175.251122641027	0	0	0	0	0	0	
78025341.7805934	-3.55423436896272	171.79475494958	0	0	0	0	0	0	
79025675.2250749	-3.5641368692676	168.285196753716	0	0	0	0	0	0	
80026008.6695564	-3.57406373900008	164.699800212085	0	0	0	0	0	0	
81026342.1140379	-3.58807642602466	161.043775752304	0	0	0	0	0	0	
82026675.5585194	-3.60618552138141	157.332692743134	0	0	0	0	0	0	
83027009.0030009	-3.62246357591748	153.584827862541	0	0	0	0	0	0	
84027342.4474824	-3.64214238495325	149.711023555611	0	0	0	0	0	0	
85027675.8919639	-3.6685231862432	145.792998966418	0	0	0	0	0	0	
86028009.3364454	-3.69803533843563	141.784037724342	0	0	0	0	0	0	
87028342.7809269	-3.730015799591	137.722505403662	0	0	0	0	0	0	
88028676.2254083	-3.76755975416523	133.561809387316	0	0	0	0	0	0	
89029009.6698898	-3.80990376581532	129.330121233759	0	0	0	0	0	0	
90029343.1143713	-3.86276729980254	125.035313121417	0	0	0	0	0	0	
91029676.5588528	-3.91497749412396	120.668160646079	0	0	0	0	0	0	
92030010.0033343	-3.96946311972145	116.149697826418	0	0	0	0	0	0	
93030343.4478158	-4.03023616243056	111.570702530821	0	0	0	0	0	0	
94030676.8922973	-4.09867975791079	106.876502056034	0	0	0	0	0	0	
95031010.3367788	-4.16640032942359	102.067266241028	0	0	0	0	0	0	
96031343.7812603	-4.24447226815209	97.1942832154243	0	0	0	0	0	0	
97031677.2257418	-4.32213876667891	92.2002455866037	0	0	0	0	0	0	
98032010.6702233	-4.40413390023278	87.1492109564714	0	0	0	0	0	0	
99032344.1147048	-4.48229937819907	81.9643423719424	0	0	0	0	0	0	
100032677.559186	-4.56299259799543	76.6861645685807	0	0	0	0	0	0	
101033011.003668	-4.6291818748553	71.2273669618633	0	0	0	0	0	0	
102033344.448149	-4.71560526209811	65.5364438033505	0	0	0	0	0	0	
103033677.892631	-4.82019885290088	59.7758707240691	0	0	0	0	0	0	
104034011.337112	-4.93157868007761	53.9203195138747	0	0	0	0	0	0	
105034344.781594	-5.05141328497494	47.9719498684553	0	0	0	0	0	0	
106034678.226075	-5.17873919524045	41.9150400837948	0	0	0	0	0	0	
107035011.670557	-5.32051198683334	35.8001035289545	0	0	0	0	0	0	
108035345.115038	-5.46559029486462	29.6291743966439	0	0	0	0	0	0	
109035678.55952	-5.61735890467993	23.4752198436576	0	0	0	0	0	0	
110036012.004001	-5.76642996992973	17.2338613716509	0	0	0	0	0	0	
111036345.448483	-5.93146959112986	11.0359973090583	0	0	0	0	0	0	
112036678.892964	-6.0879346441699	4.77307929561461	0	0	0	0	0	0	
113037012.337446	-6.28418494162541	-1.41787504531829	0	0	0	0	0	0	
114037345.781927	-6.46038533972158	-7.47497847209082	0	0	0	0	0	0	
115037679.226409	-6.62105714252145	-13.4997313288945	0	0	0	0	0	0	
116038012.67089	-6.79132206742469	-19.4882246434769	0	0	0	0	0	0	
117038346.115372	-6.93688657324123	-25.4080655280429	0	0	0	0	0	0	
118038679.559853	-7.08371965423104	-31.3216171039561	0	0	0	0	0	0	
119039013.004335	-7.20868275865106	-37.190880850084	0	0	0	0	0	0	
120039346.448816	-7.33850052826593	-43.0990963952627	0	0	0	0	0	0	
121039679.893298	-7.46660688869126	-48.9277352164866	0	0	0	0	0	0	
122040013.337779	-7.60240183750027	-54.6303877156925	0	0	0	0	0	0	
123040346.782261	-7.7313066143696	-60.1858817836404	0	0	0	0	0	0	
124040680.226742	-7.84925918813469	-65.6005764716929	0	0	0	0	0	0	
125041013.671224	-7.95741056977955	-70.8774366962179	0	0	0	0	0	0	
126041347.115705	-8.06022320552535	-75.9287285832474	0	0	0	0	0	0	
127041680.560187	-8.1456282048283	-80.9303032503037	0	0	0	0	0	0	
128042014.004668	-8.21548958396822	-85.6903496331327	0	0	0	0	0	0	
129042347.44915	-8.2517808091039	-90.5124683927066	0	0	0	0	0	0	
130042680.893631	-8.31297970290718	-95.1639098376847	0	0	0	0	0	0	
131043014.338113	-8.34920810718322	-99.6729136259983	0	0	0	0	0	0	
132043347.782594	-8.37524232655176	-104.139174448178	0	0	0	0	0	0	
133043681.227075	-8.402891549515	-108.554219961734	0	0	0	0	0	0	
134044014.671557	-8.44057332096282	-112.804964894385	0	0	0	0	0	0	
135044348.116038	-8.46310623666558	-116.866634075051	0	0	0	0	0	0	
136044681.56052	-8.48021656910569	-120.883496284349	0	0	0	0	0	0	
137045015.005001	-8.48774461599982	-124.716467406068	0	0	0	0	0	0	
138045348.449483	-8.47694014014596	-128.547714761476	0	0	0	0	0	0	
139045681.893964	-8.5169660438993	-132.66017048782	0	0	0	0	0	0	
140046015.338446	-8.55748524273659	-135.987756758475	0	0	0	0	0	0	
141046348.782927	-8.56210242705112	-139.40186675502	0	0	0	0	0	0	
142046682.227409	-8.56180138261715	-142.741513291633	0	0	0	0	0	0	
143047015.67189	-8.55285889498367	-146.019523516437	0	0	0	0	0	0	
144047349.116372	-8.53098963149135	-149.315614489651	0	0	0	0	0	0	
145047682.560853	-8.51846306625269	-152.661645700056	0	0	0	0	0	0	
146048016.005335	-8.5137735411027	-155.910949161913	0	0	0	0	0	0	
147048349.449816	-8.5020411058108	-159.097297676956	0	0	0	0	0	0	
148048682.894298	-8.50249834364717	-162.291632945443	0	0	0	0	0	0	
149049016.338779	-8.5027519002566	-165.398597778624	0	0	0	0	0	0	
150049349.783261	-8.52865305078706	-168.309793552548	0	0	0	0	0	0	
151049683.227742	-8.51208539558591	-171.036172185011	0	0	0	0	0	0	
152050016.672224	-8.47878587898161	-173.791537269965	0	0	0	0	0	0	
153050350.116705	-8.44674364350438	-176.617014966867	0	0	0	0	0	0	
154050683.561187	-8.40602049239584	-179.384129344161	0	0	0	0	0	0	
155051017.005668	-8.37135455498377	177.816625077294	0	0	0	0	0	0	
156051350.45015	-8.32741730490231	175.104746220879	0	0	0	0	0	0	
157051683.894631	-8.29021387803687	172.340664266153	0	0	0	0	0	0	
158052017.339113	-8.25432529154554	169.587292645935	0	0	0	0	0	0	
159052350.783594	-8.22973296217721	166.840521610833	0	0	0	0	0	0	
160052684.228076	-8.21543544660336	164.21087411874	0	0	0	0	0	0	
161053017.672557	-8.188408336956	161.584021148072	0	0	0	0	0	0	
162053351.117039	-8.17217473304902	159.018097862135	0	0	0	0	0	0	
163053684.56152	-8.15820613488418	156.522841660143	0	0	0	0	0	0	
164054018.006002	-8.13786655629633	154.018789722408	0	0	0	0	0	0	
165054351.450483	-8.13345601128043	151.581786451945	0	0	0	0	0	0	
166054684.894965	-8.12197638079042	149.248083637206	0	0	0	0	0	0	
167055018.339446	-8.10904193029281	146.905057551641	0	0	0	0	0	0	
168055351.783928	-8.08832531054303	144.619307183652	0	0	0	0	0	0	
169055685.228409	-8.06101571854613	142.241643264316	0	0	0	0	0	0	
170056018.672891	-8.05077580630569	139.84311329392	0	0	0	0	0	0	
171056352.117372	-8.04373660332297	137.51860444847	0	0	0	0	0	0	
172056685.561854	-8.03651408611025	135.149959148236	0	0	0	0	0	0	
173057019.006335	-8.04107006840867	132.766937577426	0	0	0	0	0	0	
174057352.450817	-8.0574718342236	130.469482473926	0	0	0	0	0	0	
175057685.895298	-8.07760309102073	128.326477512395	0	0	0	0	0	0	
176058019.33978	-8.08605377385673	126.257338394156	0	0	0	0	0	0	
177058352.784261	-8.05416734954477	124.108592727613	0	0	0	0	0	0	
178058686.228743	-8.05539677575205	121.861960862891	0	0	0	0	0	0	
179059019.673224	-8.05229720414787	119.734598821941	0	0	0	0	0	0	
180059353.117706	-8.05061898413994	117.658414742275	0	0	0	0	0	0	
181059686.562187	-8.04189512173917	115.488486495804	0	0	0	0	0	0	
182060020.006669	-8.03169396435529	113.383581840466	0	0	0	0	0	0	
183060353.45115	-8.02984760531605	111.301076124438	0	0	0	0	0	0	
184060686.895632	-8.02967292962338	109.271614378856	0	0	0	0	0	0	
185061020.340113	-8.01489208164923	107.319369510087	0	0	0	0	0	0	
186061353.784595	-7.99762175424349	105.283541330413	0	0	0	0	0	0	
187061687.229076	-7.98755241524055	103.340501281301	0	0	0	0	0	0	
188062020.673558	-7.95116377663949	101.475329379468	0	0	0	0	0	0	
189062354.118039	-7.91910945981047	99.5358279983103	0	0	0	0	0	0	
190062687.562521	-7.84893869549994	97.5756339058689	0	0	0	0	0	0	
191063021.007002	-7.80435585537083	95.2309598560267	0	0	0	0	0	0	
192063354.451484	-7.81548889982372	93.0505126415232	0	0	0	0	0	0	
193063687.895965	-7.81918658401239	91.147383021457	0	0	0	0	0	0	
194064021.340447	-7.80209121073647	89.2502789423692	0	0	0	0	0	0	
195064354.784928	-7.77580665155098	87.3676551290876	0	0	0	0	0	0	
196064688.229409	-7.75003634958753	85.2875597627648	0	0	0	0	0	0	
197065021.673891	-7.74894088646383	83.4197858635085	0	0	0	0	0	0	
198065355.118372	-7.74180304070831	81.6786388838092	0	0	0	0	0	0	
199065688.562854	-7.71484402781928	79.8640447586276	0	0	0	0	0	0	
200066022.007335	-7.69315314547622	78.0587105282903	0	0	0	0	0	0	
201066355.451817	-7.66818905030569	76.2553310863662	0	0	0	0	0	0	
202066688.896298	-7.63512838740325	74.39378261861	0	0	0	0	0	0	
203067022.34078	-7.60659282601621	72.4938154120549	0	0	0	0	0	0	
204067355.785261	-7.58785589165052	70.5556197619121	0	0	0	0	0	0	
205067689.229743	-7.57196573862714	68.628964596107	0	0	0	0	0	0	
206068022.674224	-7.55550773490256	66.761953138263	0	0	0	0	0	0	
207068356.118706	-7.53369401907662	64.8515761330082	0	0	0	0	0	0	
208068689.563187	-7.50847470122316	62.8466120505169	0	0	0	0	0	0	
209069023.007669	-7.5049613331836	60.9936680087502	0	0	0	0	0	0	
210069356.45215	-7.46610283879882	59.1238159056926	0	0	0	0	0	0	
211069689.896632	-7.41901391106838	57.1601137588079	0	0	0	0	0	0	
212070023.341113	-7.38311208016772	55.0568251805781	0	0	0	0	0	0	
213070356.785595	-7.35777739085509	52.9154585180651	0	0	0	0	0	0	
214070690.230076	-7.3419226519623	50.8341853095465	0	0	0	0	0	0	
215071023.674558	-7.31671142773575	48.7593568670949	0	0	0	0	0	0	
216071357.119039	-7.29311422226614	46.6285866129905	0	0	0	0	0	0	
217071690.563521	-7.27807107717972	44.4918965212032	0	0	0	0	0	0	
218072024.008002	-7.2694512132019	42.3436493731329	0	0	0	0	0	0	
219072357.452484	-7.27109190984129	40.3348980516206	0	0	0	0	0	0	
220072690.896965	-7.25100784960794	38.2461279349162	0	0	0	0	0	0	
221073024.341447	-7.24250735123232	36.1756566356499	0	0	0	0	0	0	
222073357.785928	-7.23503862856413	34.1084105524591	0	0	0	0	0	0	
223073691.23041	-7.23354635847843	31.9918157880336	0	0	0	0	0	0	
224074024.674891	-7.23088896837116	29.9059821380546	0	0	0	0	0	0	
225074358.119373	-7.24013350985742	27.7800168699744	0	0	0	0	0	0	
226074691.563854	-7.2530855116386	25.7402732569752	0	0	0	0	0	0	
227075025.008336	-7.27067644095368	23.7041281048418	0	0	0	0	0	0	
228075358.452817	-7.3176421599748	21.8871699154009	0	0	0	0	0	0	
229075691.897299	-7.29551167168689	20.0804011105276	0	0	0	0	0	0	
230076025.34178	-7.30875526522955	18.0851169246646	0	0	0	0	0	0	
231076358.786262	-7.33546631262634	16.2082571631664	0	0	0	0	0	0	
232076692.230743	-7.34826276330689	14.5128549255181	0	0	0	0	0	0	
233077025.675225	-7.33170921147856	12.645994240937	0	0	0	0	0	0	
234077359.119706	-7.3431293492675	10.6425927111918	0	0	0	0	0	0	
235077692.564188	-7.37388625681428	8.6938629162274	0	0	0	0	0	0	
236078026.008669	-7.39915354205301	6.83793432249897	0	0	0	0	0	0	
237078359.453151	-7.42647652678595	4.9655061445854	0	0	0	0	0	0	
238078692.897632	-7.4525931749433	3.09815929244829	0	0	0	0	0	0	
239079026.342114	-7.48118681564509	1.25859484052917	0	0	0	0	0	0	
240079359.786595	-7.50921480402843	-0.580937806279156	0	0	0	0	0	0	
241079693.231077	-7.52890604023778	-2.42284606966218	0	0	0	0	0	0	
242080026.675558	-7.55647929873865	-4.33850036892744	0	0	0	0	0	0	
243080360.12004	-7.58969115252289	-6.215039671622	0	0	0	0	0	0	
244080693.564521	-7.61692139540848	-8.08406731154179	0	0	0	0	0	0	
245081027.009003	-7.65032272815762	-9.88134561609649	0	0	0	0	0	0	
246081360.453484	-7.67850324903422	-11.6873712167159	0	0	0	0	0	0	
247081693.897966	-7.69597505230814	-13.4538774892763	0	0	0	0	0	0	
248082027.342447	-7.70750033754398	-15.3545083161677	0	0	0	0	0	0	
249082360.786929	-7.73096115565437	-17.1654130426467	0	0	0	0	0	0	
250082694.23141	-7.73555373477392	-18.9955977737752	0	0	0	0	0	0	
251083027.675892	-7.74818058730904	-20.8842471117816	0	0	0	0	0	0	
252083361.120373	-7.7588159177484	-22.7807175751885	0	0	0	0	0	0	
253083694.564855	-7.77398167374948	-24.6599494694362	0	0	0	0	0	0	
254084028.009336	-7.78831568044548	-26.5119769438665	0	0	0	0	0	0	
255084361.453818	-7.79814027718431	-28.3846126951421	0	0	0	0	0	0	
256084694.898299	-7.80703953174123	-30.2702951425604	0	0	0	0	0	0	
257085028.342781	-7.81215766040936	-32.0887389986157	0	0	0	0	0	0	
258085361.787262	-7.81311198466843	-34.0474932415189	0	0	0	0	0	0	
259085695.231743	-7.83596636706451	-36.0925958447118	0	0	0	0	0	0	
260086028.676225	-7.88086605845629	-37.9808662336435	0	0	0	0	0	0	
261086362.120706	-7.90730300189566	-39.6872791599617	0	0	0	0	0	0	
262086695.565188	-7.93456394065815	-41.5100083077289	0	0	0	0	0	0	
263087029.009669	-7.95684052076052	-43.2461077461571	0	0	0	0	0	0	
264087362.454151	-7.98091373701699	-45.051607962565	0	0	0	0	0	0	
265087695.898632	-8.00675148498635	-46.7838410461175	0	0	0	0	0	0	
266088029.343114	-8.02760339617359	-48.524946955391	0	0	0	0	0	0	
267088362.787595	-8.04850033957975	-50.3495416068671	0	0	0	0	0	0	
268088696.232077	-8.08475357063109	-52.0455196380617	0	0	0	0	0	0	
269089029.676558	-8.10077630584736	-53.7960884599175	0	0	0	0	0	0	
270089363.12104	-8.12781615769716	-55.5623216935711	0	0	0	0	0	0	
271089696.565521	-8.14432690056166	-57.3287056005066	0	0	0	0	0	0	
272090030.010003	-8.17388007421058	-59.1178268191483	0	0	0	0	0	0	
273090363.454484	-8.19511226167928	-60.870107574645	0	0	0	0	0	0	
274090696.898966	-8.20747583153866	-62.699030873099	0	0	0	0	0	0	
275091030.343447	-8.22489476868199	-64.5283679326258	0	0	0	0	0	0	
276091363.787929	-8.24754447966299	-66.4005368598054	0	0	0	0	0	0	
277091697.23241	-8.28262264271669	-68.2890957985495	0	0	0	0	0	0	
278092030.676892	-8.32426622673504	-70.0189732489743	0	0	0	0	0	0	
279092364.121373	-8.3367985316426	-71.7880736580727	0	0	0	0	0	0	
280092697.565855	-8.35698936496767	-73.6495084526101	0	0	0	0	0	0	
281093031.010336	-8.38796512632099	-75.4466746701456	0	0	0	0	0	0	
282093364.454818	-8.41468888860301	-77.2327572416072	0	0	0	0	0	0	
283093697.899299	-8.42517150569883	-78.9840484942969	0	0	0	0	0	0	
284094031.343781	-8.44958681670678	-80.7957018770804	0	0	0	0	0	0	
285094364.788262	-8.46768232570895	-82.5772300679942	0	0	0	0	0	0	
286094698.232744	-8.49295664847899	-84.3544513892266	0	0	0	0	0	0	
287095031.677225	-8.50821416551191	-86.05496519105	0	0	0	0	0	0	
288095365.121707	-8.51713029476032	-87.7111448265019	0	0	0	0	0	0	
289095698.566188	-8.51359043577761	-89.4276858445509	0	0	0	0	0	0	
290096032.01067	-8.51038157834472	-91.1879775803381	0	0	0	0	0	0	
291096365.455151	-8.50396826058355	-92.8778952163014	0	0	0	0	0	0	
292096698.899633	-8.48941475660988	-94.6306427991772	0	0	0	0	0	0	
293097032.344114	-8.46089115464916	-96.5120451572074	0	0	0	0	0	0	
294097365.788596	-8.47013294800283	-98.5502686847182	0	0	0	0	0	0	
295097699.233077	-8.51970905786438	-100.330353953207	0	0	0	0	0	0	
296098032.677559	-8.52203489554348	-101.934339967994	0	0	0	0	0	0	
297098366.12204	-8.50577802050566	-103.656430092221	0	0	0	0	0	0	
