!Keysight Technologies N9923A: A.08.09
!Date: Thursday, 02 August 2018 08:10:37
!Timezone: (GMT+08:00) Kuala Lumpur, Singapore
!Model: N9923A
!Serial: MY52412143
!GPS Latitude: 
!GPS Longitude: 
!GPS TimeStamp: 0001-01-01 00:00:00Z
!GPS Seconds Since Last Read: 0
!CHECKSUM:1636331575
!Correction: S11(ON U)S21()S12()S22()
!S2P File: Measurements:S11,S21,S12,S22:
# Hz S DB R 50
2000000	-4.25317332234835	24.3088039249841	0	0	0	0	0	0	
3000333.44448149	-3.94956818056173	13.5955280250615	0	0	0	0	0	0	
4000666.88896299	-3.82552784590971	6.81457198221618	0	0	0	0	0	0	
5001000.33344448	-3.76061084187061	1.86209512819299	0	0	0	0	0	0	
6001333.77792598	-3.72988310566106	-2.17793842620922	0	0	0	0	0	0	
7001667.22240747	-3.70976283139456	-5.64824560926478	0	0	0	0	0	0	
8002000.66688896	-3.69895581629059	-8.80117299570548	0	0	0	0	0	0	
9002334.11137046	-3.68977978298519	-11.6936740604631	0	0	0	0	0	0	
10002667.555852	-3.69208642465367	-14.4698262756702	0	0	0	0	0	0	
11003001.0003334	-3.69062690940921	-17.0843083241322	0	0	0	0	0	0	
12003334.4448149	-3.69176978590694	-19.6072049685233	0	0	0	0	0	0	
13003667.8892964	-3.69104163354578	-22.0892476211325	0	0	0	0	0	0	
14004001.3337779	-3.69360908729289	-24.5004211719677	0	0	0	0	0	0	
15004334.7782594	-3.69233777528328	-26.8575735109452	0	0	0	0	0	0	
16004668.2227409	-3.69833153492822	-29.1801343032678	0	0	0	0	0	0	
17005001.6672224	-3.69865087818132	-31.4979715759609	0	0	0	0	0	0	
18005335.1117039	-3.69805987849266	-33.7656520948328	0	0	0	0	0	0	
19005668.5561854	-3.69681934284766	-36.037576164974	0	0	0	0	0	0	
20006002.0006669	-3.69281142496209	-38.3047778010566	0	0	0	0	0	0	
21006335.4451484	-3.69517897872915	-40.5298886257592	0	0	0	0	0	0	
22006668.8896299	-3.68922929616832	-42.7777813084055	0	0	0	0	0	0	
23007002.3341114	-3.68244424297848	-45.0117285989895	0	0	0	0	0	0	
24007335.7785929	-3.68125714899758	-47.2511434632012	0	0	0	0	0	0	
25007669.2230743	-3.68090410899584	-49.465865031222	0	0	0	0	0	0	
26008002.6675558	-3.67242047548332	-51.678966563053	0	0	0	0	0	0	
27008336.1120373	-3.66592336098236	-53.9150483956282	0	0	0	0	0	0	
28008669.5565188	-3.6614903583778	-56.1327756703834	0	0	0	0	0	0	
29009003.0010003	-3.65170832523468	-58.3411463466388	0	0	0	0	0	0	
30009336.4454818	-3.65164997954656	-60.5418201392843	0	0	0	0	0	0	
31009669.8899633	-3.64656527657804	-62.8084380950735	0	0	0	0	0	0	
32010003.3344448	-3.64130126594276	-65.0180391220823	0	0	0	0	0	0	
33010336.7789263	-3.63584749100703	-67.2662983166215	0	0	0	0	0	0	
34010670.2234078	-3.63154080760462	-69.4964618821577	0	0	0	0	0	0	
35011003.6678893	-3.63115890093452	-71.8027033781725	0	0	0	0	0	0	
36011337.1123708	-3.62776531928378	-74.0700714565893	0	0	0	0	0	0	
37011670.5568523	-3.62212488396218	-76.3429680275279	0	0	0	0	0	0	
38012004.0013337	-3.62100284619195	-78.6306220240817	0	0	0	0	0	0	
39012337.4458152	-3.61597500883594	-80.9566014881562	0	0	0	0	0	0	
40012670.8902967	-3.61040961440822	-83.2981342686139	0	0	0	0	0	0	
41013004.3347782	-3.60704780492295	-85.6296802420307	0	0	0	0	0	0	
42013337.7792597	-3.59826577409433	-87.9667830615594	0	0	0	0	0	0	
43013671.2237412	-3.592003527625	-90.3122673706565	0	0	0	0	0	0	
44014004.6682227	-3.5893677644516	-92.6920325251026	0	0	0	0	0	0	
45014338.1127042	-3.58351471723741	-95.0497440935694	0	0	0	0	0	0	
46014671.5571857	-3.57552188822258	-97.4424232285559	0	0	0	0	0	0	
47015005.0016672	-3.57090062726842	-99.866916356717	0	0	0	0	0	0	
48015338.4461487	-3.56625901705759	-102.276765032727	0	0	0	0	0	0	
49015671.8906302	-3.56051656446544	-104.727596436994	0	0	0	0	0	0	
50016005.3351116	-3.55106324135962	-107.189897627553	0	0	0	0	0	0	
51016338.7795931	-3.54295695129245	-109.660862443222	0	0	0	0	0	0	
52016672.2240746	-3.53565165132179	-112.162841300257	0	0	0	0	0	0	
53017005.6685561	-3.52894613932405	-114.691364756485	0	0	0	0	0	0	
54017339.1130376	-3.52433878942625	-117.26001134592	0	0	0	0	0	0	
55017672.5575191	-3.517972686242	-119.835977988368	0	0	0	0	0	0	
56018006.0020006	-3.50719027046244	-122.431453231639	0	0	0	0	0	0	
57018339.4464821	-3.49868357193808	-125.047705330605	0	0	0	0	0	0	
58018672.8909636	-3.4881981150364	-127.684684771553	0	0	0	0	0	0	
59019006.3354451	-3.48125505402807	-130.355730112121	0	0	0	0	0	0	
60019339.7799266	-3.475602884986	-133.059744656199	0	0	0	0	0	0	
61019673.2244081	-3.46808706379806	-135.785463835888	0	0	0	0	0	0	
62020006.6688896	-3.45954071506213	-138.544011169341	0	0	0	0	0	0	
63020340.113371	-3.45906089127554	-141.321504502175	0	0	0	0	0	0	
64020673.5578525	-3.4511823945082	-144.142670880394	0	0	0	0	0	0	
65021007.002334	-3.44816030427397	-147.017613305554	0	0	0	0	0	0	
66021340.4468155	-3.45015147690476	-149.908011874661	0	0	0	0	0	0	
67021673.891297	-3.44602654296301	-152.84566095254	0	0	0	0	0	0	
68022007.3357785	-3.44826517827459	-155.816079544705	0	0	0	0	0	0	
69022340.78026	-3.44516729456947	-158.819665792829	0	0	0	0	0	0	
70022674.2247415	-3.44889863173655	-161.870934048446	0	0	0	0	0	0	
71023007.669223	-3.44251844615099	-164.990404625166	0	0	0	0	0	0	
72023341.1137045	-3.44197359552334	-168.154146876023	0	0	0	0	0	0	
73023674.558186	-3.44222341127706	-171.365328398911	0	0	0	0	0	0	
74024008.0026675	-3.44622916934241	-174.633756695193	0	0	0	0	0	0	
75024341.4471489	-3.44572356092128	-177.917100137452	0	0	0	0	0	0	
76024674.8916304	-3.44994909694471	178.71535815993	0	0	0	0	0	0	
77025008.3361119	-3.45617083921947	175.288305028454	0	0	0	0	0	0	
78025341.7805934	-3.46113093576656	171.820166272925	0	0	0	0	0	0	
79025675.2250749	-3.46427302218088	168.273691091987	0	0	0	0	0	0	
80026008.6695564	-3.46746635608565	164.68674314568	0	0	0	0	0	0	
81026342.1140379	-3.47341201074378	160.998182575044	0	0	0	0	0	0	
82026675.5585194	-3.48409213392372	157.240436119714	0	0	0	0	0	0	
83027009.0030009	-3.49265121987002	153.412190069	0	0	0	0	0	0	
84027342.4474824	-3.50325028168692	149.485462084127	0	0	0	0	0	0	
85027675.8919639	-3.521921113214	145.496661558445	0	0	0	0	0	0	
86028009.3364454	-3.54459702143822	141.377910417022	0	0	0	0	0	0	
87028342.7809269	-3.56971604173406	137.19799778303	0	0	0	0	0	0	
88028676.2254083	-3.60198321540783	132.918433818195	0	0	0	0	0	0	
89029009.6698898	-3.64222911816444	128.533906471466	0	0	0	0	0	0	
90029343.1143713	-3.69260933905006	124.110355683432	0	0	0	0	0	0	
91029676.5588528	-3.745311240247	119.560434928141	0	0	0	0	0	0	
92030010.0033343	-3.79801084127218	114.936339873834	0	0	0	0	0	0	
93030343.4478158	-3.86058051206162	110.186476164726	0	0	0	0	0	0	
94030676.8922973	-3.92725474642743	105.365003438047	0	0	0	0	0	0	
95031010.3367788	-3.99671174903765	100.372938405197	0	0	0	0	0	0	
96031343.7812603	-4.07053790440329	95.2763393522767	0	0	0	0	0	0	
97031677.2257418	-4.14701088378801	90.052889691457	0	0	0	0	0	0	
98032010.6702233	-4.22752755894523	84.6704387299968	0	0	0	0	0	0	
99032344.1147048	-4.31835034450451	79.1070749676253	0	0	0	0	0	0	
100032677.559186	-4.42130337874714	73.424519801983	0	0	0	0	0	0	
101033011.003668	-4.54142687512865	67.5295066248852	0	0	0	0	0	0	
102033344.448149	-4.68792170613602	61.5553099078729	0	0	0	0	0	0	
103033677.892631	-4.86278204133549	55.5149925676593	0	0	0	0	0	0	
104034011.337112	-5.04602421533022	49.4814493779831	0	0	0	0	0	0	
105034344.781594	-5.25173021792521	43.4655132172411	0	0	0	0	0	0	
106034678.226075	-5.44323021927248	37.4133706597971	0	0	0	0	0	0	
107035011.670557	-5.65638488771865	31.2767802709014	0	0	0	0	0	0	
108035345.115038	-5.86436321427668	25.1623796299938	0	0	0	0	0	0	
109035678.55952	-6.08384332741142	19.0235942175342	0	0	0	0	0	0	
110036012.004001	-6.30403772020771	12.9893609462162	0	0	0	0	0	0	
111036345.448483	-6.51098012733593	6.83812939554237	0	0	0	0	0	0	
112036678.892964	-6.73180753488578	0.722966066950481	0	0	0	0	0	0	
113037012.337446	-6.96984447344706	-5.21605896808158	0	0	0	0	0	0	
114037345.781927	-7.19561284478826	-11.1785779522355	0	0	0	0	0	0	
115037679.226409	-7.42298113951967	-16.9051003268303	0	0	0	0	0	0	
116038012.67089	-7.61709153505092	-22.7148448301217	0	0	0	0	0	0	
117038346.115372	-7.83808299371793	-28.3387610728449	0	0	0	0	0	0	
118038679.559853	-8.01985436314828	-33.8445260173571	0	0	0	0	0	0	
119039013.004335	-8.18567761113369	-39.2107275875846	0	0	0	0	0	0	
120039346.448816	-8.31901823786208	-44.5197257045942	0	0	0	0	0	0	
121039679.893298	-8.43674214455887	-49.9735868912816	0	0	0	0	0	0	
122040013.337779	-8.56028521868986	-55.218930919573	0	0	0	0	0	0	
123040346.782261	-8.66198900550742	-60.4130471324714	0	0	0	0	0	0	
124040680.226742	-8.77039962784629	-65.5766127261718	0	0	0	0	0	0	
125041013.671224	-8.86216855520179	-70.6330591983141	0	0	0	0	0	0	
126041347.115705	-8.95503652899967	-75.556259714482	0	0	0	0	0	0	
127041680.560187	-9.04546297426175	-80.1705526849493	0	0	0	0	0	0	
128042014.004668	-9.09826777221911	-84.7478652079998	0	0	0	0	0	0	
129042347.44915	-9.14927205630583	-89.1978730637899	0	0	0	0	0	0	
130042680.893631	-9.18772667778105	-93.5531126933436	0	0	0	0	0	0	
131043014.338113	-9.20510003509738	-97.8189754921271	0	0	0	0	0	0	
132043347.782594	-9.20375495766113	-101.855295497584	0	0	0	0	0	0	
133043681.227075	-9.18047456943789	-106.02449887378	0	0	0	0	0	0	
134044014.671557	-9.16538442248843	-110.150744779952	0	0	0	0	0	0	
135044348.116038	-9.15385409905474	-114.119635340126	0	0	0	0	0	0	
136044681.56052	-9.1206582909793	-118.124842054194	0	0	0	0	0	0	
137045015.005001	-9.11011031399441	-121.994120407002	0	0	0	0	0	0	
138045348.449483	-9.10044659134323	-125.793134643553	0	0	0	0	0	0	
139045681.893964	-9.11110596828142	-129.302552603099	0	0	0	0	0	0	
140046015.338446	-9.07666339080168	-132.726377964566	0	0	0	0	0	0	
141046348.782927	-9.03208760184304	-136.125240858326	0	0	0	0	0	0	
142046682.227409	-9.00430833597736	-139.628150206536	0	0	0	0	0	0	
143047015.67189	-8.9885107805779	-142.90658938469	0	0	0	0	0	0	
144047349.116372	-8.94916083139669	-146.092336049913	0	0	0	0	0	0	
145047682.560853	-8.90896599239803	-149.218304778722	0	0	0	0	0	0	
146048016.005335	-8.84816901180999	-152.328370109868	0	0	0	0	0	0	
147048349.449816	-8.80127418931395	-155.52476862506	0	0	0	0	0	0	
148048682.894298	-8.75823934938887	-158.66984765509	0	0	0	0	0	0	
149049016.338779	-8.73489360707577	-161.673593687026	0	0	0	0	0	0	
150049349.783261	-8.67883104343514	-164.555573853764	0	0	0	0	0	0	
151049683.227742	-8.62904464811748	-167.656580855088	0	0	0	0	0	0	
152050016.672224	-8.60416870856351	-170.597225008954	0	0	0	0	0	0	
153050350.116705	-8.56580438091543	-173.338434059587	0	0	0	0	0	0	
154050683.561187	-8.52232911318761	-176.177488756717	0	0	0	0	0	0	
155051017.005668	-8.48496946549471	-178.897794356216	0	0	0	0	0	0	
156051350.45015	-8.42825851500347	178.342450699991	0	0	0	0	0	0	
157051683.894631	-8.39279278279401	175.607004291048	0	0	0	0	0	0	
158052017.339113	-8.35239492717665	172.991676808977	0	0	0	0	0	0	
159052350.783594	-8.30754678259981	170.388019037123	0	0	0	0	0	0	
160052684.228076	-8.26268996228165	167.711980876078	0	0	0	0	0	0	
161053017.672557	-8.22439413627193	165.086556232993	0	0	0	0	0	0	
162053351.117039	-8.1897531345267	162.528430096504	0	0	0	0	0	0	
163053684.56152	-8.16457930632236	160.099441622313	0	0	0	0	0	0	
164054018.006002	-8.12718527294705	157.660020298534	0	0	0	0	0	0	
165054351.450483	-8.07687600655112	155.311878230517	0	0	0	0	0	0	
166054684.894965	-8.02338406590829	152.796327434065	0	0	0	0	0	0	
167055018.339446	-7.98167676268127	150.390942380353	0	0	0	0	0	0	
168055351.783928	-7.93580559394655	147.930185209625	0	0	0	0	0	0	
169055685.228409	-7.89947234418487	145.409218097179	0	0	0	0	0	0	
170056018.672891	-7.88546537405308	142.961261598964	0	0	0	0	0	0	
171056352.117372	-7.8599790854665	140.651657302074	0	0	0	0	0	0	
172056685.561854	-7.82808437520514	138.429460291057	0	0	0	0	0	0	
173057019.006335	-7.77825903082224	136.147473061259	0	0	0	0	0	0	
174057352.450817	-7.73388152137848	133.718069628153	0	0	0	0	0	0	
175057685.895298	-7.69270240413026	131.397397549783	0	0	0	0	0	0	
176058019.33978	-7.65206190849609	129.041188729932	0	0	0	0	0	0	
177058352.784261	-7.6218489027855	126.656377121958	0	0	0	0	0	0	
178058686.228743	-7.58360073819561	124.28398033801	0	0	0	0	0	0	
179059019.673224	-7.54569948278248	121.872626786182	0	0	0	0	0	0	
180059353.117706	-7.52440644741518	119.551637534576	0	0	0	0	0	0	
181059686.562187	-7.49393199657533	117.25690319848	0	0	0	0	0	0	
182060020.006669	-7.45202564388015	114.908313052665	0	0	0	0	0	0	
183060353.45115	-7.42827931697105	112.492698950724	0	0	0	0	0	0	
184060686.895632	-7.41826748347071	110.163998589051	0	0	0	0	0	0	
185061020.340113	-7.38912676348594	107.857071387428	0	0	0	0	0	0	
186061353.784595	-7.37731005668578	105.518745785811	0	0	0	0	0	0	
187061687.229076	-7.36073437863055	103.231133126094	0	0	0	0	0	0	
188062020.673558	-7.34874646704391	100.88547543774	0	0	0	0	0	0	
189062354.118039	-7.34877355785552	98.5667878827196	0	0	0	0	0	0	
190062687.562521	-7.36858368006634	96.2716557004807	0	0	0	0	0	0	
191063021.007002	-7.38486462001773	94.3036996362399	0	0	0	0	0	0	
192063354.451484	-7.36016540558459	92.3150446463457	0	0	0	0	0	0	
193063687.895965	-7.33977868732348	90.1532073766342	0	0	0	0	0	0	
194064021.340447	-7.31278784512284	88.0577603501343	0	0	0	0	0	0	
195064354.784928	-7.29019499283143	85.8136986583409	0	0	0	0	0	0	
196064688.229409	-7.29448641131064	83.521730843209	0	0	0	0	0	0	
197065021.673891	-7.2971825337396	81.4856894765585	0	0	0	0	0	0	
198065355.118372	-7.28495228535283	79.3744302925827	0	0	0	0	0	0	
199065688.562854	-7.28444109869309	77.2136412812119	0	0	0	0	0	0	
200066022.007335	-7.29460794850735	75.102355844178	0	0	0	0	0	0	
201066355.451817	-7.31314702398491	72.9614031537234	0	0	0	0	0	0	
202066688.896298	-7.33654676753443	70.8717237888385	0	0	0	0	0	0	
203067022.34078	-7.3570405184657	68.8897713245183	0	0	0	0	0	0	
204067355.785261	-7.37473232204186	66.8243138094358	0	0	0	0	0	0	
205067689.229743	-7.39519245169132	64.8099134302442	0	0	0	0	0	0	
206068022.674224	-7.42173330490289	62.7632429964869	0	0	0	0	0	0	
207068356.118706	-7.45522518014926	60.7767557902476	0	0	0	0	0	0	
208068689.563187	-7.47570319879669	58.8344725067558	0	0	0	0	0	0	
209069023.007669	-7.49807625642424	56.8433107770755	0	0	0	0	0	0	
210069356.45215	-7.52937157527565	54.8469451901246	0	0	0	0	0	0	
211069689.896632	-7.57158297081296	52.9168020232919	0	0	0	0	0	0	
212070023.341113	-7.60931623774579	51.1549990223685	0	0	0	0	0	0	
213070356.785595	-7.63017896669501	49.3061373602634	0	0	0	0	0	0	
214070690.230076	-7.64749614151689	47.4506581042083	0	0	0	0	0	0	
215071023.674558	-7.67368695851545	45.6089734652338	0	0	0	0	0	0	
216071357.119039	-7.69754625486595	43.8837446169243	0	0	0	0	0	0	
217071690.563521	-7.7040244757973	42.0619911427304	0	0	0	0	0	0	
218072024.008002	-7.71617975775676	40.2504787827012	0	0	0	0	0	0	
219072357.452484	-7.73757563216386	38.4107423167526	0	0	0	0	0	0	
220072690.896965	-7.76835042238388	36.5962351245692	0	0	0	0	0	0	
221073024.341447	-7.78843880138661	35.002019337012	0	0	0	0	0	0	
222073357.785928	-7.77846089081492	33.2931521183582	0	0	0	0	0	0	
223073691.23041	-7.78290333603872	31.5928757290471	0	0	0	0	0	0	
224074024.674891	-7.77582922213087	29.8359728926324	0	0	0	0	0	0	
225074358.119373	-7.7804095586719	28.0951475612886	0	0	0	0	0	0	
226074691.563854	-7.77860274511254	26.3925527443287	0	0	0	0	0	0	
227075025.008336	-7.76835773453973	24.6617889373476	0	0	0	0	0	0	
228075358.452817	-7.74374693971466	22.959672661808	0	0	0	0	0	0	
229075691.897299	-7.74541584205746	21.092338716783	0	0	0	0	0	0	
230076025.34178	-7.7447733638121	19.4976427939857	0	0	0	0	0	0	
231076358.786262	-7.70569625511675	17.8004911062655	0	0	0	0	0	0	
232076692.230743	-7.69196427683566	15.8047596514088	0	0	0	0	0	0	
233077025.675225	-7.71377952423851	14.084450056517	0	0	0	0	0	0	
234077359.119706	-7.70537508186148	12.4519051022131	0	0	0	0	0	0	
235077692.564188	-7.69065837456213	10.7771003298447	0	0	0	0	0	0	
236078026.008669	-7.66467685693281	9.01313814669695	0	0	0	0	0	0	
237078359.453151	-7.64483744705724	7.23203630876736	0	0	0	0	0	0	
238078692.897632	-7.62898067288532	5.39520849517172	0	0	0	0	0	0	
239079026.342114	-7.61147591881263	3.58133627967571	0	0	0	0	0	0	
240079359.786595	-7.59120025566162	1.74084704917825	0	0	0	0	0	0	
241079693.231077	-7.57062569804964	-0.142270942471513	0	0	0	0	0	0	
242080026.675558	-7.55794871078651	-2.07388905698549	0	0	0	0	0	0	
243080360.12004	-7.54679559583896	-3.98612771246768	0	0	0	0	0	0	
244080693.564521	-7.53572871606476	-5.94455807891901	0	0	0	0	0	0	
245081027.009003	-7.52716290382717	-7.91052074905377	0	0	0	0	0	0	
246081360.453484	-7.52528324302031	-9.85453502036566	0	0	0	0	0	0	
247081693.897966	-7.51173589133892	-11.8311191780492	0	0	0	0	0	0	
248082027.342447	-7.51053329391097	-13.8301639765891	0	0	0	0	0	0	
249082360.786929	-7.51250462642326	-15.8768195405271	0	0	0	0	0	0	
250082694.23141	-7.52129485318556	-17.87394912837	0	0	0	0	0	0	
251083027.675892	-7.52437833603076	-19.9136057096722	0	0	0	0	0	0	
252083361.120373	-7.53386781695077	-21.9376861481699	0	0	0	0	0	0	
253083694.564855	-7.54592059452	-23.9430993183252	0	0	0	0	0	0	
254084028.009336	-7.56505191357517	-26.0124736005534	0	0	0	0	0	0	
255084361.453818	-7.59090744965307	-27.9748883054893	0	0	0	0	0	0	
256084694.898299	-7.61609000170374	-29.8965164181613	0	0	0	0	0	0	
257085028.342781	-7.63495802713079	-31.840414829149	0	0	0	0	0	0	
258085361.787262	-7.67156595244189	-33.6959900757074	0	0	0	0	0	0	
259085695.231743	-7.68602277750587	-35.405016743585	0	0	0	0	0	0	
260086028.676225	-7.65658699347229	-37.2181846956855	0	0	0	0	0	0	
261086362.120706	-7.65018300619003	-39.3996379544389	0	0	0	0	0	0	
262086695.565188	-7.69420597223461	-41.4024927728758	0	0	0	0	0	0	
263087029.009669	-7.69764876247054	-43.245216753845	0	0	0	0	0	0	
264087362.454151	-7.71511898984359	-45.2791185944937	0	0	0	0	0	0	
265087695.898632	-7.74750643054416	-47.3139609378191	0	0	0	0	0	0	
266088029.343114	-7.77853733021652	-49.2037634977874	0	0	0	0	0	0	
267088362.787595	-7.80730677897917	-51.1676562536709	0	0	0	0	0	0	
268088696.232077	-7.84264015625035	-53.0941420839167	0	0	0	0	0	0	
269089029.676558	-7.87918014576476	-55.0502857717741	0	0	0	0	0	0	
270089363.12104	-7.91989633915087	-56.9320820010424	0	0	0	0	0	0	
271089696.565521	-7.97245207588275	-58.8499400560776	0	0	0	0	0	0	
272090030.010003	-8.0120544684235	-60.6099076164816	0	0	0	0	0	0	
273090363.454484	-8.04326212669291	-62.4854285981438	0	0	0	0	0	0	
274090696.898966	-8.08890306848427	-64.2751888616581	0	0	0	0	0	0	
275091030.343447	-8.11469311995868	-66.0871846950839	0	0	0	0	0	0	
276091363.787929	-8.14665876476444	-67.8727682422032	0	0	0	0	0	0	
277091697.23241	-8.17077316636089	-69.6182961267619	0	0	0	0	0	0	
278092030.676892	-8.18081276318031	-71.5527852952757	0	0	0	0	0	0	
279092364.121373	-8.22031719860922	-73.5143749190441	0	0	0	0	0	0	
280092697.565855	-8.26172537952518	-75.4211073063214	0	0	0	0	0	0	
281093031.010336	-8.3069385948388	-77.2500642665327	0	0	0	0	0	0	
282093364.454818	-8.34565045246616	-79.0908731750524	0	0	0	0	0	0	
283093697.899299	-8.38391679092345	-80.9117631075691	0	0	0	0	0	0	
284094031.343781	-8.41900487328664	-82.7465930509541	0	0	0	0	0	0	
285094364.788262	-8.45425345045675	-84.6126341086977	0	0	0	0	0	0	
286094698.232744	-8.49994793447451	-86.4194592298351	0	0	0	0	0	0	
287095031.677225	-8.52869911355837	-88.2453462496585	0	0	0	0	0	0	
288095365.121707	-8.56492340132252	-90.1376934848562	0	0	0	0	0	0	
289095698.566188	-8.6082620331209	-92.0322521997391	0	0	0	0	0	0	
290096032.01067	-8.66630534573495	-93.8903311908814	0	0	0	0	0	0	
291096365.455151	-8.71496808364338	-95.5692062016251	0	0	0	0	0	0	
292096698.899633	-8.7623528147183	-97.2494196362664	0	0	0	0	0	0	
293097032.344114	-8.79255896649742	-98.879795427527	0	0	0	0	0	0	
294097365.788596	-8.81234251760592	-100.565610587447	0	0	0	0	0	0	
295097699.233077	-8.83788327371922	-102.51442935233	0	0	0	0	0	0	
296098032.677559	-8.89820730215564	-104.181001661909	0	0	0	0	0	0	
297098366.12204	-8.94319112344671	-105.795178323959	0	0	0	0	0	0	
