!Keysight Technologies N9923A: A.08.09
!Date: Thursday, 02 August 2018 07:43:29
!Timezone: (GMT+08:00) Kuala Lumpur, Singapore
!Model: N9923A
!Serial: MY52412143
!GPS Latitude: 
!GPS Longitude: 
!GPS TimeStamp: 0001-01-01 00:00:00Z
!GPS Seconds Since Last Read: 0
!CHECKSUM:1628853274
!Correction: S11(ON U)S21()S12()S22()
!S2P File: Measurements:S11,S21,S12,S22:
# Hz S DB R 50
2000000	-4.1794882772994	22.2903317537423	0	0	0	0	0	0	
3000333.44448149	-3.9258725255396	12.4433224492188	0	0	0	0	0	0	
4000666.88896299	-3.84036467027656	6.19620569396968	0	0	0	0	0	0	
5001000.33344448	-3.81306110816268	1.61466280221158	0	0	0	0	0	0	
6001333.77792598	-3.82140474840431	-2.13932347252167	0	0	0	0	0	0	
7001667.22240747	-3.84236329159719	-5.4211550098575	0	0	0	0	0	0	
8002000.66688896	-3.86930320196857	-8.46071906061653	0	0	0	0	0	0	
9002334.11137046	-3.90362502034808	-11.310964235134	0	0	0	0	0	0	
10002667.555852	-3.93899855890688	-14.0625462808199	0	0	0	0	0	0	
11003001.0003334	-3.97150629657994	-16.7033146811588	0	0	0	0	0	0	
12003334.4448149	-4.00263286473312	-19.3303272410499	0	0	0	0	0	0	
13003667.8892964	-4.02698072117224	-21.8948601322223	0	0	0	0	0	0	
14004001.3337779	-4.04493119032033	-24.4521342120404	0	0	0	0	0	0	
15004334.7782594	-4.05427027936668	-26.9615470221117	0	0	0	0	0	0	
16004668.2227409	-4.05761377188791	-29.467492265794	0	0	0	0	0	0	
17005001.6672224	-4.05470267662055	-31.9398787239601	0	0	0	0	0	0	
18005335.1117039	-4.04390719030127	-34.3713049342324	0	0	0	0	0	0	
19005668.5561854	-4.02322705064289	-36.8003265406066	0	0	0	0	0	0	
20006002.0006669	-3.9959755351194	-39.1710881293833	0	0	0	0	0	0	
21006335.4451484	-3.96141301625561	-41.5211309613232	0	0	0	0	0	0	
22006668.8896299	-3.92651514370158	-43.8152430193978	0	0	0	0	0	0	
23007002.3341114	-3.88517479220814	-46.1101063060713	0	0	0	0	0	0	
24007335.7785929	-3.84495344646802	-48.3206002385912	0	0	0	0	0	0	
25007669.2230743	-3.81086160766805	-50.5195412209277	0	0	0	0	0	0	
26008002.6675558	-3.77030979480196	-52.684790032113	0	0	0	0	0	0	
27008336.1120373	-3.73494857207551	-54.8255194452738	0	0	0	0	0	0	
28008669.5565188	-3.69872704373409	-56.8933646141998	0	0	0	0	0	0	
29009003.0010003	-3.67907750819431	-58.9558113071515	0	0	0	0	0	0	
30009336.4454818	-3.65616001677898	-61.0140930827651	0	0	0	0	0	0	
31009669.8899633	-3.64108480825213	-63.0612687406682	0	0	0	0	0	0	
32010003.3344448	-3.63979334536066	-65.1399504021157	0	0	0	0	0	0	
33010336.7789263	-3.64584636559357	-67.2190087923673	0	0	0	0	0	0	
34010670.2234078	-3.65407462453234	-69.3161310443887	0	0	0	0	0	0	
35011003.6678893	-3.67333028904754	-71.4709254102793	0	0	0	0	0	0	
36011337.1123708	-3.69771953311652	-73.6494829773405	0	0	0	0	0	0	
37011670.5568523	-3.72890863534245	-75.8476626000222	0	0	0	0	0	0	
38012004.0013337	-3.75925980783948	-78.0924320518819	0	0	0	0	0	0	
39012337.4458152	-3.7881669435696	-80.3661703022844	0	0	0	0	0	0	
40012670.8902967	-3.82075501436453	-82.7352601535121	0	0	0	0	0	0	
41013004.3347782	-3.85080454992139	-85.1483318665151	0	0	0	0	0	0	
42013337.7792597	-3.8810015863399	-87.5744499129856	0	0	0	0	0	0	
43013671.2237412	-3.90225763702327	-90.0797490386243	0	0	0	0	0	0	
44014004.6682227	-3.92007230800461	-92.5892198944377	0	0	0	0	0	0	
45014338.1127042	-3.92981911326195	-95.1533154301817	0	0	0	0	0	0	
46014671.5571857	-3.93892981618525	-97.729640847597	0	0	0	0	0	0	
47015005.0016672	-3.9320131643326	-100.355888507724	0	0	0	0	0	0	
48015338.4461487	-3.92051885801543	-102.964465284516	0	0	0	0	0	0	
49015671.8906302	-3.89950024667115	-105.602407591233	0	0	0	0	0	0	
50016005.3351116	-3.87820848832929	-108.216583097637	0	0	0	0	0	0	
51016338.7795931	-3.85003498757329	-110.851588263206	0	0	0	0	0	0	
52016672.2240746	-3.8093451638637	-113.432717561156	0	0	0	0	0	0	
53017005.6685561	-3.76895839430458	-116.005512764687	0	0	0	0	0	0	
54017339.1130376	-3.72558923930792	-118.545880508093	0	0	0	0	0	0	
55017672.5575191	-3.67671840305474	-121.091085918654	0	0	0	0	0	0	
56018006.0020006	-3.63437983643722	-123.573025080745	0	0	0	0	0	0	
57018339.4464821	-3.59052835524022	-126.079160939487	0	0	0	0	0	0	
58018672.8909636	-3.55022324559135	-128.572794714855	0	0	0	0	0	0	
59019006.3354451	-3.51531005375061	-131.088528669391	0	0	0	0	0	0	
60019339.7799266	-3.48721392273444	-133.587879910773	0	0	0	0	0	0	
61019673.2244081	-3.47338427036857	-136.129787811873	0	0	0	0	0	0	
62020006.6688896	-3.4616641404588	-138.688073043907	0	0	0	0	0	0	
63020340.113371	-3.46793230285816	-141.292578585522	0	0	0	0	0	0	
64020673.5578525	-3.47859546761899	-143.922295520898	0	0	0	0	0	0	
65021007.002334	-3.49863902753041	-146.595458260695	0	0	0	0	0	0	
66021340.4468155	-3.52620400457115	-149.343269808458	0	0	0	0	0	0	
67021673.891297	-3.56021317701738	-152.152855029949	0	0	0	0	0	0	
68022007.3357785	-3.60035080966861	-155.063496270111	0	0	0	0	0	0	
69022340.78026	-3.64468993318493	-158.032532241162	0	0	0	0	0	0	
70022674.2247415	-3.6894931065204	-161.09975733353	0	0	0	0	0	0	
71023007.669223	-3.72482656314297	-164.26020953792	0	0	0	0	0	0	
72023341.1137045	-3.75938346300408	-167.509817430148	0	0	0	0	0	0	
73023674.558186	-3.78857753073865	-170.885785687626	0	0	0	0	0	0	
74024008.0026675	-3.81269546801933	-174.405194300415	0	0	0	0	0	0	
75024341.4471489	-3.8299466015514	-178.014290268009	0	0	0	0	0	0	
76024674.8916304	-3.8466010587909	178.278407556838	0	0	0	0	0	0	
77025008.3361119	-3.8559133419194	174.514490764105	0	0	0	0	0	0	
78025341.7805934	-3.86326593924169	170.708762125269	0	0	0	0	0	0	
79025675.2250749	-3.86228886906245	166.856131015299	0	0	0	0	0	0	
80026008.6695564	-3.85652446378743	162.982871464239	0	0	0	0	0	0	
81026342.1140379	-3.84072688071206	159.085901617627	0	0	0	0	0	0	
82026675.5585194	-3.81124878494947	155.1454305987	0	0	0	0	0	0	
83027009.0030009	-3.78347640496828	151.134739957497	0	0	0	0	0	0	
84027342.4474824	-3.76427747283747	147.080263547858	0	0	0	0	0	0	
85027675.8919639	-3.75082235567882	142.983261631462	0	0	0	0	0	0	
86028009.3364454	-3.75551280233883	138.832155633494	0	0	0	0	0	0	
87028342.7809269	-3.77011931716175	134.696123625651	0	0	0	0	0	0	
88028676.2254083	-3.79830873954561	130.509353758219	0	0	0	0	0	0	
89029009.6698898	-3.83758308969395	126.25869079461	0	0	0	0	0	0	
90029343.1143713	-3.89446611255395	121.868495324514	0	0	0	0	0	0	
91029676.5588528	-3.97387957167637	117.399984197868	0	0	0	0	0	0	
92030010.0033343	-4.07662935160631	112.804919242192	0	0	0	0	0	0	
93030343.4478158	-4.21489678258939	108.074341920092	0	0	0	0	0	0	
94030676.8922973	-4.37246173629799	103.23118533055	0	0	0	0	0	0	
95031010.3367788	-4.56654964463967	98.2706302941903	0	0	0	0	0	0	
96031343.7812603	-4.7723935429415	93.2094525708703	0	0	0	0	0	0	
97031677.2257418	-5.00879835902383	88.096480802269	0	0	0	0	0	0	
98032010.6702233	-5.25062157512705	82.9632598531259	0	0	0	0	0	0	
99032344.1147048	-5.48642881892047	77.7172838163884	0	0	0	0	0	0	
100032677.559186	-5.71282655705088	72.338831503689	0	0	0	0	0	0	
101033011.003668	-5.95525605786661	66.8775838354908	0	0	0	0	0	0	
102033344.448149	-6.16548268613417	61.4270207898525	0	0	0	0	0	0	
103033677.892631	-6.34458139440449	55.8188937413379	0	0	0	0	0	0	
104034011.337112	-6.5195828226173	50.0328827552769	0	0	0	0	0	0	
105034344.781594	-6.68314666536144	44.2143628777557	0	0	0	0	0	0	
106034678.226075	-6.82761352664603	38.4105918411154	0	0	0	0	0	0	
107035011.670557	-6.96205762806281	32.5501552413425	0	0	0	0	0	0	
108035345.115038	-7.07144250683348	26.7527184261896	0	0	0	0	0	0	
109035678.55952	-7.16492938872606	20.9206119907189	0	0	0	0	0	0	
110036012.004001	-7.27063996333933	14.9669730352708	0	0	0	0	0	0	
111036345.448483	-7.40377322030005	9.12253144620795	0	0	0	0	0	0	
112036678.892964	-7.55254359043109	3.41315298632844	0	0	0	0	0	0	
113037012.337446	-7.71582408648005	-2.06524814676696	0	0	0	0	0	0	
114037345.781927	-7.88708738015598	-7.44374838759233	0	0	0	0	0	0	
115037679.226409	-8.05166634741812	-12.6851270819169	0	0	0	0	0	0	
116038012.67089	-8.20884085644755	-17.9965607313228	0	0	0	0	0	0	
117038346.115372	-8.39171699936984	-23.3220307491756	0	0	0	0	0	0	
118038679.559853	-8.57221236729018	-28.6529689953514	0	0	0	0	0	0	
119039013.004335	-8.76628444163432	-34.1507526714309	0	0	0	0	0	0	
120039346.448816	-8.97885340185857	-39.5556890226231	0	0	0	0	0	0	
121039679.893298	-9.18319784541784	-44.8958075953076	0	0	0	0	0	0	
122040013.337779	-9.36032226975755	-50.2330112420304	0	0	0	0	0	0	
123040346.782261	-9.51365650003382	-55.6705604690922	0	0	0	0	0	0	
124040680.226742	-9.63542855009587	-61.0854126093474	0	0	0	0	0	0	
125041013.671224	-9.73721822268612	-66.4984638324701	0	0	0	0	0	0	
126041347.115705	-9.79871888792773	-71.9158890838051	0	0	0	0	0	0	
127041680.560187	-9.8328535966876	-77.2527603389317	0	0	0	0	0	0	
128042014.004668	-9.8285237723189	-82.4956447014527	0	0	0	0	0	0	
129042347.44915	-9.79860137887723	-87.5993045158141	0	0	0	0	0	0	
130042680.893631	-9.74005336738297	-92.5813042633751	0	0	0	0	0	0	
131043014.338113	-9.66934987155436	-97.3047965789807	0	0	0	0	0	0	
132043347.782594	-9.57270610619252	-101.919826145025	0	0	0	0	0	0	
133043681.227075	-9.47497173929155	-106.294912524206	0	0	0	0	0	0	
134044014.671557	-9.38265475951461	-110.507728423158	0	0	0	0	0	0	
135044348.116038	-9.29589604555735	-114.464011905414	0	0	0	0	0	0	
136044681.56052	-9.19649937901637	-118.186734709952	0	0	0	0	0	0	
137045015.005001	-9.11493821347912	-121.880383021243	0	0	0	0	0	0	
138045348.449483	-9.06168390669417	-125.388734164208	0	0	0	0	0	0	
139045681.893964	-9.01241183909254	-128.679505534136	0	0	0	0	0	0	
140046015.338446	-8.97910632232779	-131.907111829054	0	0	0	0	0	0	
141046348.782927	-8.95715298689089	-134.965359036064	0	0	0	0	0	0	
142046682.227409	-8.92994357894789	-138.090755524019	0	0	0	0	0	0	
143047015.67189	-8.92695809364931	-141.251458530521	0	0	0	0	0	0	
144047349.116372	-8.9370787311172	-144.377845003337	0	0	0	0	0	0	
145047682.560853	-8.95143123845772	-147.509680932467	0	0	0	0	0	0	
146048016.005335	-8.96281300994173	-150.784159803758	0	0	0	0	0	0	
147048349.449816	-8.994379351555	-154.104594864488	0	0	0	0	0	0	
148048682.894298	-9.02824578309091	-157.533686831386	0	0	0	0	0	0	
149049016.338779	-9.09713955016514	-160.914833249803	0	0	0	0	0	0	
150049349.783261	-9.1518838239561	-163.932340365663	0	0	0	0	0	0	
151049683.227742	-9.12323269980433	-167.069466195368	0	0	0	0	0	0	
152050016.672224	-9.09421396398808	-170.498359837103	0	0	0	0	0	0	
153050350.116705	-9.05724516539512	-174.09360345472	0	0	0	0	0	0	
154050683.561187	-9.04380193620223	-177.663133418091	0	0	0	0	0	0	
155051017.005668	-9.03881132885295	179.009641032603	0	0	0	0	0	0	
156051350.45015	-8.99112057362313	175.749838841086	0	0	0	0	0	0	
157051683.894631	-8.94459962173578	172.689989577206	0	0	0	0	0	0	
158052017.339113	-8.88461406881526	169.817021992065	0	0	0	0	0	0	
159052350.783594	-8.78312757841045	166.979723475195	0	0	0	0	0	0	
160052684.228076	-8.67920336240467	164.207777268814	0	0	0	0	0	0	
161053017.672557	-8.57778200601667	161.479132843385	0	0	0	0	0	0	
162053351.117039	-8.48802198780785	158.967002465491	0	0	0	0	0	0	
163053684.56152	-8.39311633270525	156.536354275252	0	0	0	0	0	0	
164054018.006002	-8.31081605243841	154.228224993957	0	0	0	0	0	0	
165054351.450483	-8.22392587642649	152.0492149521	0	0	0	0	0	0	
166054684.894965	-8.15392053714006	149.862463993563	0	0	0	0	0	0	
167055018.339446	-8.08713504966121	147.771262931828	0	0	0	0	0	0	
168055351.783928	-8.04031712762398	145.829275347365	0	0	0	0	0	0	
169055685.228409	-7.98794002692651	143.856552438121	0	0	0	0	0	0	
170056018.672891	-7.95217499382404	141.79572676616	0	0	0	0	0	0	
171056352.117372	-7.95089811765013	139.716719179198	0	0	0	0	0	0	
172056685.561854	-7.96739332033854	137.689808994485	0	0	0	0	0	0	
173057019.006335	-7.99504813609149	135.75658288309	0	0	0	0	0	0	
174057352.450817	-8.02932884941976	133.785274775421	0	0	0	0	0	0	
175057685.895298	-8.07785014290625	131.883539636303	0	0	0	0	0	0	
176058019.33978	-8.11410030954693	129.927548711489	0	0	0	0	0	0	
177058352.784261	-8.14515556214632	127.935127238993	0	0	0	0	0	0	
178058686.228743	-8.17787750413693	125.764544131662	0	0	0	0	0	0	
179059019.673224	-8.20880022417875	123.606098551456	0	0	0	0	0	0	
180059353.117706	-8.23764604696346	121.292413300269	0	0	0	0	0	0	
181059686.562187	-8.26703799027379	119.007126885572	0	0	0	0	0	0	
182060020.006669	-8.26949383816298	116.629252034964	0	0	0	0	0	0	
183060353.45115	-8.28130625765528	114.261856565629	0	0	0	0	0	0	
184060686.895632	-8.26167113335371	111.842617853413	0	0	0	0	0	0	
185061020.340113	-8.23522607017399	109.31120559529	0	0	0	0	0	0	
186061353.784595	-8.22294993451293	106.833441590255	0	0	0	0	0	0	
187061687.229076	-8.17072526652209	104.41968810391	0	0	0	0	0	0	
188062020.673558	-8.1262521413492	102.003926683464	0	0	0	0	0	0	
189062354.118039	-8.06792935707773	99.791534892123	0	0	0	0	0	0	
190062687.562521	-7.97083974564531	97.5403649268154	0	0	0	0	0	0	
191063021.007002	-7.86810024496574	95.2562471905991	0	0	0	0	0	0	
192063354.451484	-7.77454896643836	93.0171729387267	0	0	0	0	0	0	
193063687.895965	-7.68231959970989	90.7178061231101	0	0	0	0	0	0	
194064021.340447	-7.60679068385848	88.6064469492914	0	0	0	0	0	0	
195064354.784928	-7.52961749006547	86.5909199125158	0	0	0	0	0	0	
196064688.229409	-7.45909428117965	84.6819425995999	0	0	0	0	0	0	
197065021.673891	-7.38303423030718	82.8389961024578	0	0	0	0	0	0	
198065355.118372	-7.30979065820941	80.9729475518255	0	0	0	0	0	0	
199065688.562854	-7.25955913971018	79.0790081448124	0	0	0	0	0	0	
200066022.007335	-7.22312868429212	77.2977172682034	0	0	0	0	0	0	
201066355.451817	-7.1781061422998	75.352395253313	0	0	0	0	0	0	
202066688.896298	-7.16834310118783	73.3257889428566	0	0	0	0	0	0	
203067022.34078	-7.19917586022389	71.3567124246831	0	0	0	0	0	0	
204067355.785261	-7.24989060530764	69.5851446093888	0	0	0	0	0	0	
205067689.229743	-7.28879772741819	67.7994389665974	0	0	0	0	0	0	
206068022.674224	-7.32244006385264	66.0329215881278	0	0	0	0	0	0	
207068356.118706	-7.34303169426728	64.0541816748937	0	0	0	0	0	0	
208068689.563187	-7.39733100708447	61.9050938173926	0	0	0	0	0	0	
209069023.007669	-7.45348867487255	59.7462539127769	0	0	0	0	0	0	
210069356.45215	-7.53270252159936	57.534721747856	0	0	0	0	0	0	
211069689.896632	-7.62032516492765	55.4128822832638	0	0	0	0	0	0	
212070023.341113	-7.69293401029351	53.2663029208114	0	0	0	0	0	0	
213070356.785595	-7.73938637199168	51.1891487706446	0	0	0	0	0	0	
214070690.230076	-7.77766418484518	48.9467020315237	0	0	0	0	0	0	
215071023.674558	-7.80957860876103	46.5564791456034	0	0	0	0	0	0	
216071357.119039	-7.8499951957375	44.2256819713124	0	0	0	0	0	0	
217071690.563521	-7.87276264524614	41.9875242664012	0	0	0	0	0	0	
218072024.008002	-7.88180549222768	39.7655846492869	0	0	0	0	0	0	
219072357.452484	-7.87827068097155	37.572664717275	0	0	0	0	0	0	
220072690.896965	-7.85633096218979	35.3927900183893	0	0	0	0	0	0	
221073024.341447	-7.83514062147107	33.2158133255008	0	0	0	0	0	0	
222073357.785928	-7.80865485946403	31.1386979613467	0	0	0	0	0	0	
223073691.23041	-7.77436008641553	29.1925111281874	0	0	0	0	0	0	
224074024.674891	-7.7309502836059	27.2552618694281	0	0	0	0	0	0	
225074358.119373	-7.68352726403486	25.4064703552093	0	0	0	0	0	0	
226074691.563854	-7.65002207103664	23.5160428829766	0	0	0	0	0	0	
227075025.008336	-7.62390053343305	21.8544730131052	0	0	0	0	0	0	
228075358.452817	-7.60197270501332	20.267335278508	0	0	0	0	0	0	
229075691.897299	-7.56157361677009	18.7474655336095	0	0	0	0	0	0	
230076025.34178	-7.5348709484928	17.201070092569	0	0	0	0	0	0	
231076358.786262	-7.52054939010416	15.6976724732038	0	0	0	0	0	0	
232076692.230743	-7.52793672445098	14.1836662636512	0	0	0	0	0	0	
233077025.675225	-7.53585411405161	12.7507547475945	0	0	0	0	0	0	
234077359.119706	-7.54495771025122	11.3469312496495	0	0	0	0	0	0	
235077692.564188	-7.5746511271955	9.7855551719897	0	0	0	0	0	0	
236078026.008669	-7.62967925895662	8.25248190818744	0	0	0	0	0	0	
237078359.453151	-7.68984665441823	6.8277570615927	0	0	0	0	0	0	
238078692.897632	-7.72807921747338	5.3660862678911	0	0	0	0	0	0	
239079026.342114	-7.76105501809061	3.66592696923525	0	0	0	0	0	0	
240079359.786595	-7.83124658019505	1.83434156721925	0	0	0	0	0	0	
241079693.231077	-7.90776812115579	-0.0479672853120933	0	0	0	0	0	0	
242080026.675558	-7.9891530947172	-1.78435195726958	0	0	0	0	0	0	
243080360.12004	-8.04236912761167	-3.67029258859442	0	0	0	0	0	0	
244080693.564521	-8.09660079755925	-5.61306120151708	0	0	0	0	0	0	
245081027.009003	-8.13646832047688	-7.77492511087912	0	0	0	0	0	0	
246081360.453484	-8.18553612706275	-9.9971042784138	0	0	0	0	0	0	
247081693.897966	-8.23773042008981	-12.1942596881348	0	0	0	0	0	0	
248082027.342447	-8.26202987252478	-14.332679356447	0	0	0	0	0	0	
249082360.786929	-8.28398079382044	-16.6548258948701	0	0	0	0	0	0	
250082694.23141	-8.29917436365881	-18.8570996475524	0	0	0	0	0	0	
251083027.675892	-8.29886420628021	-20.9506561210735	0	0	0	0	0	0	
252083361.120373	-8.26459334939839	-22.9562460976424	0	0	0	0	0	0	
253083694.564855	-8.20938848611931	-25.0977678301659	0	0	0	0	0	0	
254084028.009336	-8.15718274216509	-27.2618461497463	0	0	0	0	0	0	
255084361.453818	-8.11633369340372	-29.3041042790976	0	0	0	0	0	0	
256084694.898299	-8.05426879236459	-31.2643171782695	0	0	0	0	0	0	
257085028.342781	-7.99331103818963	-33.1951774839095	0	0	0	0	0	0	
258085361.787262	-7.94090452848229	-35.1021127785537	0	0	0	0	0	0	
259085695.231743	-7.8921669921315	-36.8958214953534	0	0	0	0	0	0	
260086028.676225	-7.84747002720224	-38.6287419153805	0	0	0	0	0	0	
261086362.120706	-7.81963783400268	-40.3454024795273	0	0	0	0	0	0	
262086695.565188	-7.80853177861476	-41.9534849942907	0	0	0	0	0	0	
263087029.009669	-7.80418437534735	-43.410902986905	0	0	0	0	0	0	
264087362.454151	-7.7906590514661	-44.8061816978142	0	0	0	0	0	0	
265087695.898632	-7.77778693826013	-46.3444801726627	0	0	0	0	0	0	
266088029.343114	-7.8009850456106	-47.8919701799276	0	0	0	0	0	0	
267088362.787595	-7.83360108417313	-49.3765504073994	0	0	0	0	0	0	
268088696.232077	-7.87269088745668	-50.9495046334728	0	0	0	0	0	0	
269089029.676558	-7.92726351426801	-52.4354621675292	0	0	0	0	0	0	
270089363.12104	-7.97174874250973	-53.9835645715938	0	0	0	0	0	0	
271089696.565521	-8.02259525334478	-55.7560305365299	0	0	0	0	0	0	
272090030.010003	-8.10359739825476	-57.574413434242	0	0	0	0	0	0	
273090363.454484	-8.1883901917018	-59.3309649412257	0	0	0	0	0	0	
274090696.898966	-8.25980943264875	-61.1800317455807	0	0	0	0	0	0	
275091030.343447	-8.32849349666084	-63.2235516133963	0	0	0	0	0	0	
276091363.787929	-8.41235840702549	-65.3008379328266	0	0	0	0	0	0	
277091697.23241	-8.49720165300936	-67.3514025722334	0	0	0	0	0	0	
278092030.676892	-8.55950218807752	-69.4495479970908	0	0	0	0	0	0	
279092364.121373	-8.61967549948561	-71.6480380445742	0	0	0	0	0	0	
280092697.565855	-8.67071467087681	-73.9140925425735	0	0	0	0	0	0	
281093031.010336	-8.70533286791519	-76.1723659653555	0	0	0	0	0	0	
282093364.454818	-8.7342786258978	-78.4470268543899	0	0	0	0	0	0	
283093697.899299	-8.74466285623602	-80.6952585744785	0	0	0	0	0	0	
284094031.343781	-8.74942469492189	-82.8755535217078	0	0	0	0	0	0	
285094364.788262	-8.73670136453308	-84.9829938795567	0	0	0	0	0	0	
286094698.232744	-8.70207627186804	-87.1219372040649	0	0	0	0	0	0	
287095031.677225	-8.66790542676111	-89.3140206509403	0	0	0	0	0	0	
288095365.121707	-8.64862550345316	-91.3590778715165	0	0	0	0	0	0	
289095698.566188	-8.63550646095071	-93.1673630147576	0	0	0	0	0	0	
290096032.01067	-8.59334448184614	-94.8025543113763	0	0	0	0	0	0	
291096365.455151	-8.53008975304325	-96.5305525521991	0	0	0	0	0	0	
292096698.899633	-8.48610695283439	-98.3190358984226	0	0	0	0	0	0	
293097032.344114	-8.47179230217624	-100.026181813043	0	0	0	0	0	0	
294097365.788596	-8.46367682703062	-101.542994549446	0	0	0	0	0	0	
295097699.233077	-8.46418021441105	-102.927415411935	0	0	0	0	0	0	
296098032.677559	-8.44749354255111	-104.366933785181	0	0	0	0	0	0	
297098366.12204	-8.45743681492908	-105.802518988108	0	0	0	0	0	0	
