!Keysight Technologies N9923A: A.08.09
!Date: Thursday, 02 August 2018 07:45:46
!Timezone: (GMT+08:00) Kuala Lumpur, Singapore
!Model: N9923A
!Serial: MY52412143
!GPS Latitude: 
!GPS Longitude: 
!GPS TimeStamp: 0001-01-01 00:00:00Z
!GPS Seconds Since Last Read: 0
!CHECKSUM:0588494721
!Correction: S11(ON U)S21()S12()S22()
!S2P File: Measurements:S11,S21,S12,S22:
# Hz S DB R 50
2000000	-4.17535195657758	22.4216455362296	0	0	0	0	0	0	
3000333.44448149	-3.91806117053704	12.5284802178832	0	0	0	0	0	0	
4000666.88896299	-3.83555286409519	6.26620088231955	0	0	0	0	0	0	
5001000.33344448	-3.80978386650617	1.66221375202444	0	0	0	0	0	0	
6001333.77792598	-3.81949879989013	-2.09060922594869	0	0	0	0	0	0	
7001667.22240747	-3.84006173914441	-5.385036603381	0	0	0	0	0	0	
8002000.66688896	-3.86856892143369	-8.42330428517527	0	0	0	0	0	0	
9002334.11137046	-3.90512606324688	-11.2534517344618	0	0	0	0	0	0	
10002667.555852	-3.93912310418423	-14.023171304766	0	0	0	0	0	0	
11003001.0003334	-3.96941563174896	-16.6561707190214	0	0	0	0	0	0	
12003334.4448149	-4.00152598381218	-19.2763635982591	0	0	0	0	0	0	
13003667.8892964	-4.02600364224419	-21.846884780985	0	0	0	0	0	0	
14004001.3337779	-4.04134055556705	-24.3970683092827	0	0	0	0	0	0	
15004334.7782594	-4.04995525751119	-26.9199881979078	0	0	0	0	0	0	
16004668.2227409	-4.05414390124248	-29.4147511778151	0	0	0	0	0	0	
17005001.6672224	-4.04678509037172	-31.8957334998618	0	0	0	0	0	0	
18005335.1117039	-4.03349407748785	-34.3375976359972	0	0	0	0	0	0	
19005668.5561854	-4.01433181510736	-36.7507639299227	0	0	0	0	0	0	
20006002.0006669	-3.98609594748985	-39.1362087308339	0	0	0	0	0	0	
21006335.4451484	-3.95081716199412	-41.4779308898225	0	0	0	0	0	0	
22006668.8896299	-3.91004018198491	-43.7859380911865	0	0	0	0	0	0	
23007002.3341114	-3.86363494387534	-46.0452480143113	0	0	0	0	0	0	
24007335.7785929	-3.82668562011089	-48.2763107685969	0	0	0	0	0	0	
25007669.2230743	-3.79386372738189	-50.4745557318187	0	0	0	0	0	0	
26008002.6675558	-3.74855349201245	-52.6328606465155	0	0	0	0	0	0	
27008336.1120373	-3.7118247947653	-54.7601700762623	0	0	0	0	0	0	
28008669.5565188	-3.67464226928766	-56.8329085553753	0	0	0	0	0	0	
29009003.0010003	-3.65000970256723	-58.905128043458	0	0	0	0	0	0	
30009336.4454818	-3.62777010393046	-60.9400527815904	0	0	0	0	0	0	
31009669.8899633	-3.61249304165021	-62.9891324454553	0	0	0	0	0	0	
32010003.3344448	-3.61095985532669	-65.0633090843291	0	0	0	0	0	0	
33010336.7789263	-3.61520288573701	-67.1257793668008	0	0	0	0	0	0	
34010670.2234078	-3.62314388716051	-69.2185069044698	0	0	0	0	0	0	
35011003.6678893	-3.64225550428188	-71.3587208566894	0	0	0	0	0	0	
36011337.1123708	-3.66288137497569	-73.5088410213998	0	0	0	0	0	0	
37011670.5568523	-3.69329298064553	-75.7128252164061	0	0	0	0	0	0	
38012004.0013337	-3.72384511174027	-77.9617909948509	0	0	0	0	0	0	
39012337.4458152	-3.749433146026	-80.2489717703781	0	0	0	0	0	0	
40012670.8902967	-3.78203808740649	-82.6053122381933	0	0	0	0	0	0	
41013004.3347782	-3.81021575587039	-84.9985602504374	0	0	0	0	0	0	
42013337.7792597	-3.83725934416404	-87.4355614777802	0	0	0	0	0	0	
43013671.2237412	-3.86062762720678	-89.9282938280295	0	0	0	0	0	0	
44014004.6682227	-3.8730389888655	-92.4568887011702	0	0	0	0	0	0	
45014338.1127042	-3.88532344851941	-95.0094650117532	0	0	0	0	0	0	
46014671.5571857	-3.88988019133186	-97.5823457129327	0	0	0	0	0	0	
47015005.0016672	-3.88078578072747	-100.215865259746	0	0	0	0	0	0	
48015338.4461487	-3.8688278493274	-102.858586930792	0	0	0	0	0	0	
49015671.8906302	-3.84709137266074	-105.50197366489	0	0	0	0	0	0	
50016005.3351116	-3.82432598150284	-108.127213732091	0	0	0	0	0	0	
51016338.7795931	-3.79157678260551	-110.739671863447	0	0	0	0	0	0	
52016672.2240746	-3.74866429026238	-113.351103515216	0	0	0	0	0	0	
53017005.6685561	-3.70755261654068	-115.938511628451	0	0	0	0	0	0	
54017339.1130376	-3.66256546233116	-118.518659910933	0	0	0	0	0	0	
55017672.5575191	-3.61776453986604	-121.071196730603	0	0	0	0	0	0	
56018006.0020006	-3.57434936213423	-123.580495984791	0	0	0	0	0	0	
57018339.4464821	-3.53277757125345	-126.086138674794	0	0	0	0	0	0	
58018672.8909636	-3.49916466187773	-128.586791497578	0	0	0	0	0	0	
59019006.3354451	-3.46418565231101	-131.066566058073	0	0	0	0	0	0	
60019339.7799266	-3.44041444160511	-133.565931259858	0	0	0	0	0	0	
61019673.2244081	-3.42703158513511	-136.074662263342	0	0	0	0	0	0	
62020006.6688896	-3.41914636848523	-138.611700582579	0	0	0	0	0	0	
63020340.113371	-3.42357705324187	-141.192229528805	0	0	0	0	0	0	
64020673.5578525	-3.43820491900437	-143.800673366571	0	0	0	0	0	0	
65021007.002334	-3.45778366377239	-146.443675234165	0	0	0	0	0	0	
66021340.4468155	-3.48745378858191	-149.174301366844	0	0	0	0	0	0	
67021673.891297	-3.52173287849535	-151.959177975598	0	0	0	0	0	0	
68022007.3357785	-3.56272407170038	-154.843172001529	0	0	0	0	0	0	
69022340.78026	-3.60573158798111	-157.833355862782	0	0	0	0	0	0	
70022674.2247415	-3.65432895207816	-160.90656806385	0	0	0	0	0	0	
71023007.669223	-3.70119644422529	-164.072055259404	0	0	0	0	0	0	
72023341.1137045	-3.75134996413378	-167.28040813064	0	0	0	0	0	0	
73023674.558186	-3.7906751675914	-170.575731465808	0	0	0	0	0	0	
74024008.0026675	-3.8271359865703	-173.987668266042	0	0	0	0	0	0	
75024341.4471489	-3.85091579774831	-177.527602947648	0	0	0	0	0	0	
76024674.8916304	-3.87532130484937	178.870047522535	0	0	0	0	0	0	
77025008.3361119	-3.89270764493971	175.258215293395	0	0	0	0	0	0	
78025341.7805934	-3.90149332598069	171.596950693667	0	0	0	0	0	0	
79025675.2250749	-3.89152837241537	167.890587496226	0	0	0	0	0	0	
80026008.6695564	-3.87560111742878	164.084062336123	0	0	0	0	0	0	
81026342.1140379	-3.86042080494945	160.249850043669	0	0	0	0	0	0	
82026675.5585194	-3.84302791828297	156.427200345408	0	0	0	0	0	0	
83027009.0030009	-3.82102531433446	152.606706761105	0	0	0	0	0	0	
84027342.4474824	-3.79376993950779	148.749779637954	0	0	0	0	0	0	
85027675.8919639	-3.77363566713177	144.838786135463	0	0	0	0	0	0	
86028009.3364454	-3.76658962093483	140.900688955458	0	0	0	0	0	0	
87028342.7809269	-3.7686153367173	136.93999455579	0	0	0	0	0	0	
88028676.2254083	-3.78894408845124	133.011573378665	0	0	0	0	0	0	
89029009.6698898	-3.80119614251684	129.04498102394	0	0	0	0	0	0	
90029343.1143713	-3.83326836676977	124.905199626362	0	0	0	0	0	0	
91029676.5588528	-3.89162461405665	120.702440280534	0	0	0	0	0	0	
92030010.0033343	-3.96995997180004	116.485626729368	0	0	0	0	0	0	
93030343.4478158	-4.06573873360473	112.220425887202	0	0	0	0	0	0	
94030676.8922973	-4.15598608068858	107.912131845565	0	0	0	0	0	0	
95031010.3367788	-4.24066698319773	103.381078604019	0	0	0	0	0	0	
96031343.7812603	-4.33610765450631	98.5559708447811	0	0	0	0	0	0	
97031677.2257418	-4.45789354159607	93.51074543381	0	0	0	0	0	0	
98032010.6702233	-4.59724725448327	88.3637231063954	0	0	0	0	0	0	
99032344.1147048	-4.73420768321435	83.1166850964386	0	0	0	0	0	0	
100032677.559186	-4.86474841581914	77.6742376509533	0	0	0	0	0	0	
101033011.003668	-4.99607756662706	72.1251355353828	0	0	0	0	0	0	
102033344.448149	-5.12420419004331	66.3911194212046	0	0	0	0	0	0	
103033677.892631	-5.22990530033256	60.5692664349255	0	0	0	0	0	0	
104034011.337112	-5.31897995100484	54.5340262751075	0	0	0	0	0	0	
105034344.781594	-5.4099489019933	48.1649578166419	0	0	0	0	0	0	
106034678.226075	-5.54769549952317	41.7775684404154	0	0	0	0	0	0	
107035011.670557	-5.71135769933823	35.7122890947246	0	0	0	0	0	0	
108035345.115038	-5.82469998482879	29.9971265930509	0	0	0	0	0	0	
109035678.55952	-5.88819812357043	24.2422517209132	0	0	0	0	0	0	
110036012.004001	-5.94516945596108	18.3046491577756	0	0	0	0	0	0	
111036345.448483	-6.00208003625632	12.2462818286282	0	0	0	0	0	0	
112036678.892964	-6.0814748966236	6.03213634407421	0	0	0	0	0	0	
113037012.337446	-6.25535736178509	-0.0348873125571759	0	0	0	0	0	0	
114037345.781927	-6.43949590034484	-5.85539164253115	0	0	0	0	0	0	
115037679.226409	-6.64852222329966	-11.3762713372808	0	0	0	0	0	0	
116038012.67089	-6.83896072411283	-16.648590743082	0	0	0	0	0	0	
117038346.115372	-7.00788123423529	-21.8950158963367	0	0	0	0	0	0	
118038679.559853	-7.16130519504675	-27.2440856995008	0	0	0	0	0	0	
119039013.004335	-7.31054841699016	-32.8688435670758	0	0	0	0	0	0	
120039346.448816	-7.49999736944974	-38.5670859995665	0	0	0	0	0	0	
121039679.893298	-7.68700653452346	-44.2198954246719	0	0	0	0	0	0	
122040013.337779	-7.86714954751127	-50.0190058701148	0	0	0	0	0	0	
123040346.782261	-8.06188982596737	-55.8192992994826	0	0	0	0	0	0	
124040680.226742	-8.26045612173789	-61.3562474973244	0	0	0	0	0	0	
125041013.671224	-8.42351770689599	-66.4840761530898	0	0	0	0	0	0	
126041347.115705	-8.45505297113531	-71.5223890933922	0	0	0	0	0	0	
127041680.560187	-8.43284288643697	-77.115857435695	0	0	0	0	0	0	
128042014.004668	-8.43914527789719	-83.050175122726	0	0	0	0	0	0	
129042347.44915	-8.50278632714237	-88.8100028358022	0	0	0	0	0	0	
130042680.893631	-8.58880976930539	-93.9924888532623	0	0	0	0	0	0	
131043014.338113	-8.63212163401139	-98.5876239075478	0	0	0	0	0	0	
132043347.782594	-8.61977854710601	-102.872623023106	0	0	0	0	0	0	
133043681.227075	-8.5651303176544	-106.904399235124	0	0	0	0	0	0	
134044014.671557	-8.47296197649507	-110.957327437246	0	0	0	0	0	0	
135044348.116038	-8.38409969521539	-114.9978321756	0	0	0	0	0	0	
136044681.56052	-8.30700428814229	-119.091890709934	0	0	0	0	0	0	
137045015.005001	-8.28524558449143	-123.112556856897	0	0	0	0	0	0	
138045348.449483	-8.31164815804194	-126.716550195777	0	0	0	0	0	0	
139045681.893964	-8.33000309994704	-129.912115842926	0	0	0	0	0	0	
140046015.338446	-8.32018847267886	-132.999062200999	0	0	0	0	0	0	
141046348.782927	-8.33985368170592	-136.157116486558	0	0	0	0	0	0	
142046682.227409	-8.33188935439517	-139.205546019617	0	0	0	0	0	0	
143047015.67189	-8.33262854632356	-142.396437091208	0	0	0	0	0	0	
144047349.116372	-8.35215776507912	-145.737753508445	0	0	0	0	0	0	
145047682.560853	-8.40919053853121	-149.13466840174	0	0	0	0	0	0	
146048016.005335	-8.48051509305174	-152.46730229484	0	0	0	0	0	0	
147048349.449816	-8.57087232921555	-155.746507459182	0	0	0	0	0	0	
148048682.894298	-8.6390910691334	-158.8511971824	0	0	0	0	0	0	
149049016.338779	-8.68099074984271	-162.043371956626	0	0	0	0	0	0	
150049349.783261	-8.71136545494623	-165.403387072563	0	0	0	0	0	0	
151049683.227742	-8.73058716350046	-168.693088508974	0	0	0	0	0	0	
152050016.672224	-8.72983616200954	-172.187154458106	0	0	0	0	0	0	
153050350.116705	-8.72783109077185	-175.81340854033	0	0	0	0	0	0	
154050683.561187	-8.73855236461185	-179.416960938181	0	0	0	0	0	0	
155051017.005668	-8.76227473197737	177.172141428306	0	0	0	0	0	0	
156051350.45015	-8.75340024387123	174.087981087822	0	0	0	0	0	0	
157051683.894631	-8.71460170080851	171.107214154296	0	0	0	0	0	0	
158052017.339113	-8.6432936809215	168.176402223166	0	0	0	0	0	0	
159052350.783594	-8.55784086066308	165.265767097149	0	0	0	0	0	0	
160052684.228076	-8.46670223408364	162.350103524876	0	0	0	0	0	0	
161053017.672557	-8.3972329732391	159.417529354079	0	0	0	0	0	0	
162053351.117039	-8.355815089637	156.727133787051	0	0	0	0	0	0	
163053684.56152	-8.33419526702707	154.312627403234	0	0	0	0	0	0	
164054018.006002	-8.30647617972968	152.216442529904	0	0	0	0	0	0	
165054351.450483	-8.25378487206165	150.2927146524	0	0	0	0	0	0	
166054684.894965	-8.18711061604113	148.409343725367	0	0	0	0	0	0	
167055018.339446	-8.13077989375536	146.426872893579	0	0	0	0	0	0	
168055351.783928	-8.0921193041157	144.52988006501	0	0	0	0	0	0	
169055685.228409	-8.05728665772205	142.717575527896	0	0	0	0	0	0	
170056018.672891	-8.02015831367305	140.642077854323	0	0	0	0	0	0	
171056352.117372	-8.06452860347378	138.593346127222	0	0	0	0	0	0	
172056685.561854	-8.10354871371756	136.916479004897	0	0	0	0	0	0	
173057019.006335	-8.12954588307497	135.177629138554	0	0	0	0	0	0	
174057352.450817	-8.15609471821704	133.390801359937	0	0	0	0	0	0	
175057685.895298	-8.19313272981493	131.493231588318	0	0	0	0	0	0	
176058019.33978	-8.24484206363426	129.628306865595	0	0	0	0	0	0	
177058352.784261	-8.2553405328886	127.711141375778	0	0	0	0	0	0	
178058686.228743	-8.30706683872699	125.552055964627	0	0	0	0	0	0	
179059019.673224	-8.34912098759244	123.461668317121	0	0	0	0	0	0	
180059353.117706	-8.40155690336505	121.318368328427	0	0	0	0	0	0	
181059686.562187	-8.4321742020408	119.246152473832	0	0	0	0	0	0	
182060020.006669	-8.4243338364019	117.124142468382	0	0	0	0	0	0	
183060353.45115	-8.40737606368623	114.85713950781	0	0	0	0	0	0	
184060686.895632	-8.36760417085999	112.531415351529	0	0	0	0	0	0	
185061020.340113	-8.31417255134319	110.112937927963	0	0	0	0	0	0	
186061353.784595	-8.24866317720666	107.558384394668	0	0	0	0	0	0	
187061687.229076	-8.17966916397097	104.946151451732	0	0	0	0	0	0	
188062020.673558	-8.12555571478793	102.300880270596	0	0	0	0	0	0	
189062354.118039	-8.10652709507795	99.942484160742	0	0	0	0	0	0	
190062687.562521	-7.99911738857974	97.9472985012952	0	0	0	0	0	0	
191063021.007002	-7.89611081275602	95.3994018925939	0	0	0	0	0	0	
192063354.451484	-7.7887736663782	93.2375072115562	0	0	0	0	0	0	
193063687.895965	-7.73513266760786	90.758676262957	0	0	0	0	0	0	
194064021.340447	-7.68789144320453	88.8297807207939	0	0	0	0	0	0	
195064354.784928	-7.63211110820883	87.0207610792726	0	0	0	0	0	0	
196064688.229409	-7.55476484452854	85.4069194100803	0	0	0	0	0	0	
197065021.673891	-7.46354669800206	83.7772707464084	0	0	0	0	0	0	
198065355.118372	-7.35416138242894	82.0905829276208	0	0	0	0	0	0	
199065688.562854	-7.26888905646544	80.1323306765157	0	0	0	0	0	0	
200066022.007335	-7.2334375447043	78.445835101987	0	0	0	0	0	0	
201066355.451817	-7.17428078583117	76.5995896385594	0	0	0	0	0	0	
202066688.896298	-7.14638807495983	74.7238859550202	0	0	0	0	0	0	
203067022.34078	-7.14161981613778	72.8192099999527	0	0	0	0	0	0	
204067355.785261	-7.15642330877363	71.0296877027413	0	0	0	0	0	0	
205067689.229743	-7.17593400302879	69.2030832988632	0	0	0	0	0	0	
206068022.674224	-7.18856653046256	67.4326872672496	0	0	0	0	0	0	
207068356.118706	-7.18970719344642	65.5042201672454	0	0	0	0	0	0	
208068689.563187	-7.204816832623	63.3782366887358	0	0	0	0	0	0	
209069023.007669	-7.22515966984189	61.1298124526369	0	0	0	0	0	0	
210069356.45215	-7.26221988867442	58.7599433202509	0	0	0	0	0	0	
211069689.896632	-7.32241091078312	56.3905764708304	0	0	0	0	0	0	
212070023.341113	-7.38499673950357	54.1214871238886	0	0	0	0	0	0	
213070356.785595	-7.41195144285926	51.8176778516072	0	0	0	0	0	0	
214070690.230076	-7.43794113024759	49.3585181404007	0	0	0	0	0	0	
215071023.674558	-7.47035694806453	46.8440695808172	0	0	0	0	0	0	
216071357.119039	-7.49172635935443	44.3962255731961	0	0	0	0	0	0	
217071690.563521	-7.50196553923588	41.8430240025337	0	0	0	0	0	0	
218072024.008002	-7.5225692715804	39.3401153326564	0	0	0	0	0	0	
219072357.452484	-7.54395793919931	36.9947018353881	0	0	0	0	0	0	
220072690.896965	-7.53436081161415	34.7685023153594	0	0	0	0	0	0	
221073024.341447	-7.50947887579963	32.5603596465455	0	0	0	0	0	0	
222073357.785928	-7.47456719180409	30.3815514768507	0	0	0	0	0	0	
223073691.23041	-7.4382561163149	28.2413021166122	0	0	0	0	0	0	
224074024.674891	-7.40470347656823	26.1682108408163	0	0	0	0	0	0	
225074358.119373	-7.37157698075207	24.1918495236895	0	0	0	0	0	0	
226074691.563854	-7.33628241712369	22.2296657484752	0	0	0	0	0	0	
227075025.008336	-7.31547431772637	20.3516137772372	0	0	0	0	0	0	
228075358.452817	-7.30843607450976	18.5566556187283	0	0	0	0	0	0	
229075691.897299	-7.31140499363548	16.8820767928367	0	0	0	0	0	0	
230076025.34178	-7.32636085450741	15.3673098881587	0	0	0	0	0	0	
231076358.786262	-7.32415980600029	13.9597046559034	0	0	0	0	0	0	
232076692.230743	-7.34121840927287	12.5314685030003	0	0	0	0	0	0	
233077025.675225	-7.32301765470778	11.0850931329587	0	0	0	0	0	0	
234077359.119706	-7.34554011631856	9.32645156055185	0	0	0	0	0	0	
235077692.564188	-7.40902780332266	7.67307578338598	0	0	0	0	0	0	
236078026.008669	-7.48264312650543	6.05623429066534	0	0	0	0	0	0	
237078359.453151	-7.56523225717697	4.46879292104879	0	0	0	0	0	0	
238078692.897632	-7.65068260066314	2.89396459194829	0	0	0	0	0	0	
239079026.342114	-7.73199893311529	1.25713436648208	0	0	0	0	0	0	
240079359.786595	-7.82547249371098	-0.424668095090358	0	0	0	0	0	0	
241079693.231077	-7.90689289744338	-2.23589701132445	0	0	0	0	0	0	
242080026.675558	-7.99899201692537	-4.08954062447782	0	0	0	0	0	0	
243080360.12004	-8.07706627015177	-5.96198881867122	0	0	0	0	0	0	
244080693.564521	-8.16100860799946	-8.096356598192	0	0	0	0	0	0	
245081027.009003	-8.2690955432937	-10.1811005648348	0	0	0	0	0	0	
246081360.453484	-8.34605588658099	-12.0725812128184	0	0	0	0	0	0	
247081693.897966	-8.39115039124595	-14.0925810900544	0	0	0	0	0	0	
248082027.342447	-8.42838116464585	-16.1617094811341	0	0	0	0	0	0	
249082360.786929	-8.44810535732516	-18.3448303634696	0	0	0	0	0	0	
250082694.23141	-8.45951827802886	-20.4496518904784	0	0	0	0	0	0	
251083027.675892	-8.44934764324658	-22.6279192633776	0	0	0	0	0	0	
252083361.120373	-8.4412258999187	-24.730426609165	0	0	0	0	0	0	
253083694.564855	-8.42206107645594	-26.8183807517394	0	0	0	0	0	0	
254084028.009336	-8.39143295045819	-28.7819265961764	0	0	0	0	0	0	
255084361.453818	-8.35123873350503	-30.6684401253098	0	0	0	0	0	0	
256084694.898299	-8.29340681365901	-32.4691188111638	0	0	0	0	0	0	
257085028.342781	-8.22965385988837	-34.300577830509	0	0	0	0	0	0	
258085361.787262	-8.17172452874153	-36.134721100821	0	0	0	0	0	0	
259085695.231743	-8.13287634809539	-37.9178921604237	0	0	0	0	0	0	
260086028.676225	-8.11200267546116	-39.6748460567785	0	0	0	0	0	0	
261086362.120706	-8.12179939156207	-41.2203901842067	0	0	0	0	0	0	
262086695.565188	-8.12404989984557	-42.4883802151043	0	0	0	0	0	0	
263087029.009669	-8.1087213964607	-43.7411348543825	0	0	0	0	0	0	
264087362.454151	-8.09934317453214	-45.0153799002523	0	0	0	0	0	0	
265087695.898632	-8.09612210595622	-46.2601815874121	0	0	0	0	0	0	
266088029.343114	-8.09619600344278	-47.6202725083026	0	0	0	0	0	0	
267088362.787595	-8.10546409302688	-49.0057117903637	0	0	0	0	0	0	
268088696.232077	-8.12939890040359	-50.6443393262164	0	0	0	0	0	0	
269089029.676558	-8.20007974729874	-52.167070983121	0	0	0	0	0	0	
270089363.12104	-8.2628236920168	-53.7357985037605	0	0	0	0	0	0	
271089696.565521	-8.35173758810656	-55.3354016594146	0	0	0	0	0	0	
272090030.010003	-8.45098273640463	-56.8797519020676	0	0	0	0	0	0	
273090363.454484	-8.53260297233868	-58.30654928666	0	0	0	0	0	0	
274090696.898966	-8.5728337685861	-59.9605947916699	0	0	0	0	0	0	
275091030.343447	-8.62321203084717	-61.9734990322277	0	0	0	0	0	0	
276091363.787929	-8.70047741279455	-64.1623981775633	0	0	0	0	0	0	
277091697.23241	-8.800487991294	-66.2179940371473	0	0	0	0	0	0	
278092030.676892	-8.8915873897007	-68.2712114266471	0	0	0	0	0	0	
279092364.121373	-8.96621685364597	-70.1952450314159	0	0	0	0	0	0	
280092697.565855	-9.00901168272025	-72.1929863792744	0	0	0	0	0	0	
281093031.010336	-9.00967017211834	-74.2264569910542	0	0	0	0	0	0	
282093364.454818	-9.00074235029433	-76.4795775968266	0	0	0	0	0	0	
283093697.899299	-8.98855183763565	-78.8329417448007	0	0	0	0	0	0	
284094031.343781	-8.98165595074565	-81.0794160799763	0	0	0	0	0	0	
285094364.788262	-8.97632807877724	-83.2212518869481	0	0	0	0	0	0	
286094698.232744	-8.95024335341787	-85.2299916473834	0	0	0	0	0	0	
287095031.677225	-8.90852172497249	-87.0939008000968	0	0	0	0	0	0	
288095365.121707	-8.8446782649462	-88.9029405052251	0	0	0	0	0	0	
289095698.566188	-8.76223928846735	-90.6579292762261	0	0	0	0	0	0	
290096032.01067	-8.66538584237966	-92.4772965160787	0	0	0	0	0	0	
291096365.455151	-8.57727006260197	-94.3638898843017	0	0	0	0	0	0	
292096698.899633	-8.51708140933686	-96.3203957682435	0	0	0	0	0	0	
293097032.344114	-8.48433738299814	-98.1039883100389	0	0	0	0	0	0	
294097365.788596	-8.4639462161335	-99.7150448548434	0	0	0	0	0	0	
295097699.233077	-8.45951100276065	-101.210722299946	0	0	0	0	0	0	
296098032.677559	-8.45944451351757	-102.535332897775	0	0	0	0	0	0	
297098366.12204	-8.40468772782639	-103.681270411317	0	0	0	0	0	0	
