!Keysight Technologies N9923A: A.08.09
!Date: Thursday, 02 August 2018 08:29:56
!Timezone: (GMT+08:00) Kuala Lumpur, Singapore
!Model: N9923A
!Serial: MY52412143
!GPS Latitude: 
!GPS Longitude: 
!GPS TimeStamp: 0001-01-01 00:00:00Z
!GPS Seconds Since Last Read: 0
!CHECKSUM:0533388516
!Correction: S11(ON U)S21()S12()S22()
!S2P File: Measurements:S11,S21,S12,S22:
# Hz S DB R 50
2000000	-4.24865460324779	24.6605515254419	0	0	0	0	0	0	
3000333.44448149	-3.93670686557101	13.832204803541	0	0	0	0	0	0	
4000666.88896299	-3.8163228313728	6.9897664985651	0	0	0	0	0	0	
5001000.33344448	-3.75505134882723	1.98681964722201	0	0	0	0	0	0	
6001333.77792598	-3.72938801134241	-2.08038486013548	0	0	0	0	0	0	
7001667.22240747	-3.71670990873316	-5.55441503080876	0	0	0	0	0	0	
8002000.66688896	-3.71101551705206	-8.73093246131578	0	0	0	0	0	0	
9002334.11137046	-3.70977676477849	-11.6477546263107	0	0	0	0	0	0	
10002667.555852	-3.71325958478468	-14.4336448284352	0	0	0	0	0	0	
11003001.0003334	-3.71712341554393	-17.0619025674418	0	0	0	0	0	0	
12003334.4448149	-3.72190799451422	-19.6286054659674	0	0	0	0	0	0	
13003667.8892964	-3.72032948325427	-22.1295993606136	0	0	0	0	0	0	
14004001.3337779	-3.72240579019448	-24.5636333775822	0	0	0	0	0	0	
15004334.7782594	-3.71976271701576	-26.9757863763279	0	0	0	0	0	0	
16004668.2227409	-3.72327917271774	-29.3352349088596	0	0	0	0	0	0	
17005001.6672224	-3.72050318733021	-31.6586871738557	0	0	0	0	0	0	
18005335.1117039	-3.7161848353106	-33.9598288618019	0	0	0	0	0	0	
19005668.5561854	-3.70864382388431	-36.2745509577575	0	0	0	0	0	0	
20006002.0006669	-3.70585092086894	-38.549167242146	0	0	0	0	0	0	
21006335.4451484	-3.69891394712625	-40.819625194956	0	0	0	0	0	0	
22006668.8896299	-3.68892313049987	-43.0639856931233	0	0	0	0	0	0	
23007002.3341114	-3.67705692577494	-45.2848729095411	0	0	0	0	0	0	
24007335.7785929	-3.67092630425703	-47.541080701483	0	0	0	0	0	0	
25007669.2230743	-3.66365470114133	-49.7325512869885	0	0	0	0	0	0	
26008002.6675558	-3.65097104382022	-51.9400769628366	0	0	0	0	0	0	
27008336.1120373	-3.63906809979671	-54.1566643003135	0	0	0	0	0	0	
28008669.5565188	-3.62828403319794	-56.3368910652038	0	0	0	0	0	0	
29009003.0010003	-3.62156281898527	-58.523968147086	0	0	0	0	0	0	
30009336.4454818	-3.61579480174383	-60.6978667899046	0	0	0	0	0	0	
31009669.8899633	-3.61004180013686	-62.9141997950961	0	0	0	0	0	0	
32010003.3344448	-3.60346258643565	-65.098036016813	0	0	0	0	0	0	
33010336.7789263	-3.60086076295153	-67.3063989642244	0	0	0	0	0	0	
34010670.2234078	-3.59727470858709	-69.516696038685	0	0	0	0	0	0	
35011003.6678893	-3.59841272834932	-71.7627241174406	0	0	0	0	0	0	
36011337.1123708	-3.59715954520955	-74.0122130383257	0	0	0	0	0	0	
37011670.5568523	-3.59515529923269	-76.2424481100704	0	0	0	0	0	0	
38012004.0013337	-3.59660054079382	-78.532361849043	0	0	0	0	0	0	
39012337.4458152	-3.59783266834997	-80.8483273674432	0	0	0	0	0	0	
40012670.8902967	-3.59521307231222	-83.1807319969117	0	0	0	0	0	0	
41013004.3347782	-3.59332465543454	-85.5151788988861	0	0	0	0	0	0	
42013337.7792597	-3.58867179221825	-87.8772615397374	0	0	0	0	0	0	
43013671.2237412	-3.5836788846664	-90.2537134157737	0	0	0	0	0	0	
44014004.6682227	-3.58065390738924	-92.6385777308639	0	0	0	0	0	0	
45014338.1127042	-3.57608261401859	-95.0420618292026	0	0	0	0	0	0	
46014671.5571857	-3.56552819901643	-97.4708419108175	0	0	0	0	0	0	
47015005.0016672	-3.56331368029484	-99.9227484757661	0	0	0	0	0	0	
48015338.4461487	-3.55252403188847	-102.375940095332	0	0	0	0	0	0	
49015671.8906302	-3.54378474220931	-104.88879042184	0	0	0	0	0	0	
50016005.3351116	-3.53165064338891	-107.39170338825	0	0	0	0	0	0	
51016338.7795931	-3.52065275140921	-109.897748315378	0	0	0	0	0	0	
52016672.2240746	-3.51041133450692	-112.437436848301	0	0	0	0	0	0	
53017005.6685561	-3.49234029324063	-114.986949662727	0	0	0	0	0	0	
54017339.1130376	-3.48214038242391	-117.582141827	0	0	0	0	0	0	
55017672.5575191	-3.46713528591289	-120.189591957602	0	0	0	0	0	0	
56018006.0020006	-3.4515215705408	-122.798274684535	0	0	0	0	0	0	
57018339.4464821	-3.43641791859204	-125.409205750537	0	0	0	0	0	0	
58018672.8909636	-3.41983815023143	-128.051848531845	0	0	0	0	0	0	
59019006.3354451	-3.40479868837297	-130.732939930901	0	0	0	0	0	0	
60019339.7799266	-3.38973053384672	-133.430003000729	0	0	0	0	0	0	
61019673.2244081	-3.37536373338835	-136.170946660629	0	0	0	0	0	0	
62020006.6688896	-3.36295034462348	-138.947947509182	0	0	0	0	0	0	
63020340.113371	-3.3592217837639	-141.756252751769	0	0	0	0	0	0	
64020673.5578525	-3.35086860012053	-144.591733098585	0	0	0	0	0	0	
65021007.002334	-3.3510241082111	-147.495379213196	0	0	0	0	0	0	
66021340.4468155	-3.35282660588598	-150.400650072804	0	0	0	0	0	0	
67021673.891297	-3.3507653155366	-153.381327645805	0	0	0	0	0	0	
68022007.3357785	-3.35450152828256	-156.393258716465	0	0	0	0	0	0	
69022340.78026	-3.35713259533503	-159.443347665325	0	0	0	0	0	0	
70022674.2247415	-3.36213799292534	-162.573496317411	0	0	0	0	0	0	
71023007.669223	-3.36346150753828	-165.759675652268	0	0	0	0	0	0	
72023341.1137045	-3.36650656637783	-168.967972500721	0	0	0	0	0	0	
73023674.558186	-3.36802295890225	-172.273386402462	0	0	0	0	0	0	
74024008.0026675	-3.37402977390409	-175.653707134933	0	0	0	0	0	0	
75024341.4471489	-3.38338368223529	-179.064381465929	0	0	0	0	0	0	
76024674.8916304	-3.38937243015392	177.469562710742	0	0	0	0	0	0	
77025008.3361119	-3.40098747387693	173.939246883545	0	0	0	0	0	0	
78025341.7805934	-3.40987264382117	170.355603990949	0	0	0	0	0	0	
79025675.2250749	-3.41898435356511	166.684446948151	0	0	0	0	0	0	
80026008.6695564	-3.43035912252445	162.984542056609	0	0	0	0	0	0	
81026342.1140379	-3.43900880546301	159.197845167494	0	0	0	0	0	0	
82026675.5585194	-3.45328587272706	155.312335396123	0	0	0	0	0	0	
83027009.0030009	-3.47049893600222	151.334836938692	0	0	0	0	0	0	
84027342.4474824	-3.50011906177403	147.29240345206	0	0	0	0	0	0	
85027675.8919639	-3.5406592150604	143.218102839641	0	0	0	0	0	0	
86028009.3364454	-3.57845552678951	139.018410339162	0	0	0	0	0	0	
87028342.7809269	-3.63211806863093	134.802492474092	0	0	0	0	0	0	
88028676.2254083	-3.69242556380963	130.498173919548	0	0	0	0	0	0	
89029009.6698898	-3.76361152713311	126.169930911249	0	0	0	0	0	0	
90029343.1143713	-3.82796431492738	121.778467849705	0	0	0	0	0	0	
91029676.5588528	-3.89585249667336	117.200536815693	0	0	0	0	0	0	
92030010.0033343	-3.97416575935762	112.472814605117	0	0	0	0	0	0	
93030343.4478158	-4.0693077961138	107.56819707591	0	0	0	0	0	0	
94030676.8922973	-4.18797053621685	102.553108677063	0	0	0	0	0	0	
95031010.3367788	-4.31909855930309	97.3979748831498	0	0	0	0	0	0	
96031343.7812603	-4.47335117252583	92.2216241941829	0	0	0	0	0	0	
97031677.2257418	-4.6493368632544	87.0372656100604	0	0	0	0	0	0	
98032010.6702233	-4.81747234624562	81.8011763617654	0	0	0	0	0	0	
99032344.1147048	-5.00497690276765	76.3937324262338	0	0	0	0	0	0	
100032677.559186	-5.22308389024857	71.0410098646876	0	0	0	0	0	0	
101033011.003668	-5.42114745563221	65.9565000360253	0	0	0	0	0	0	
102033344.448149	-5.57743204880496	60.6711185845937	0	0	0	0	0	0	
103033677.892631	-5.73190714945892	55.1224415459807	0	0	0	0	0	0	
104034011.337112	-5.91565939903135	49.3406885800309	0	0	0	0	0	0	
105034344.781594	-6.12665108293021	43.6262961216496	0	0	0	0	0	0	
106034678.226075	-6.32537335407552	38.1010188162839	0	0	0	0	0	0	
107035011.670557	-6.50734209719618	32.4952812832883	0	0	0	0	0	0	
108035345.115038	-6.67518056146028	26.8473694728272	0	0	0	0	0	0	
109035678.55952	-6.85717438007764	21.0620952465097	0	0	0	0	0	0	
110036012.004001	-7.03693138232208	15.4068430169944	0	0	0	0	0	0	
111036345.448483	-7.20427640165744	9.93353822936741	0	0	0	0	0	0	
112036678.892964	-7.33621193598898	4.25958854287397	0	0	0	0	0	0	
113037012.337446	-7.48028625798785	-1.52425834873405	0	0	0	0	0	0	
114037345.781927	-7.62685177333153	-7.30913635128473	0	0	0	0	0	0	
115037679.226409	-7.81165093189183	-13.141046984727	0	0	0	0	0	0	
116038012.67089	-8.00508194664492	-18.6080811362388	0	0	0	0	0	0	
117038346.115372	-8.14963181128027	-23.870511242967	0	0	0	0	0	0	
118038679.559853	-8.26418380803169	-29.2303256692707	0	0	0	0	0	0	
119039013.004335	-8.35430674471648	-34.7287455328964	0	0	0	0	0	0	
120039346.448816	-8.47554341608578	-40.3433255515817	0	0	0	0	0	0	
121039679.893298	-8.58931559820238	-45.6768048650833	0	0	0	0	0	0	
122040013.337779	-8.66898076239505	-50.9161866300596	0	0	0	0	0	0	
123040346.782261	-8.73098810932926	-56.3091976680212	0	0	0	0	0	0	
124040680.226742	-8.79674225214944	-61.8248939788703	0	0	0	0	0	0	
125041013.671224	-8.89134149810067	-67.2457430130655	0	0	0	0	0	0	
126041347.115705	-8.99662556062576	-72.2980278980219	0	0	0	0	0	0	
127041680.560187	-9.06919592735316	-77.0078460196148	0	0	0	0	0	0	
128042014.004668	-9.09257360394105	-81.6656397652639	0	0	0	0	0	0	
129042347.44915	-9.09876011224703	-86.3502787935966	0	0	0	0	0	0	
130042680.893631	-9.08943307349633	-91.0101203234768	0	0	0	0	0	0	
131043014.338113	-9.09017662293607	-95.5468017720057	0	0	0	0	0	0	
132043347.782594	-9.07020705248614	-99.9826857433743	0	0	0	0	0	0	
133043681.227075	-9.03212849054496	-104.256138205928	0	0	0	0	0	0	
134044014.671557	-8.97564071105318	-108.631186288018	0	0	0	0	0	0	
135044348.116038	-8.94322373559386	-113.025103938766	0	0	0	0	0	0	
136044681.56052	-8.94917248176663	-117.295568948942	0	0	0	0	0	0	
137045015.005001	-8.9577695981638	-121.15089053108	0	0	0	0	0	0	
138045348.449483	-8.9404421881572	-124.730652544207	0	0	0	0	0	0	
139045681.893964	-8.8925747777918	-128.277829521235	0	0	0	0	0	0	
140046015.338446	-8.84181208408744	-131.939629705954	0	0	0	0	0	0	
141046348.782927	-8.8108272841415	-135.619676013308	0	0	0	0	0	0	
142046682.227409	-8.79959784490193	-139.043752375351	0	0	0	0	0	0	
143047015.67189	-8.75220125003412	-142.331828753583	0	0	0	0	0	0	
144047349.116372	-8.70669206880168	-145.692098096466	0	0	0	0	0	0	
145047682.560853	-8.65135193582578	-149.129752650851	0	0	0	0	0	0	
146048016.005335	-8.62841870981087	-152.673719670995	0	0	0	0	0	0	
147048349.449816	-8.62602996198029	-156.026437622554	0	0	0	0	0	0	
148048682.894298	-8.62239026524562	-159.200374617342	0	0	0	0	0	0	
149049016.338779	-8.61764301729767	-162.253548564809	0	0	0	0	0	0	
150049349.783261	-8.58016491019933	-165.260861709713	0	0	0	0	0	0	
151049683.227742	-8.54775672387736	-168.416541898365	0	0	0	0	0	0	
152050016.672224	-8.52930714467802	-171.445325346811	0	0	0	0	0	0	
153050350.116705	-8.50813249629205	-174.454687729017	0	0	0	0	0	0	
154050683.561187	-8.49276405346974	-177.37112210692	0	0	0	0	0	0	
155051017.005668	-8.46272227945053	179.859565023933	0	0	0	0	0	0	
156051350.45015	-8.42618381153009	176.954622044604	0	0	0	0	0	0	
157051683.894631	-8.39612950052935	174.188883392299	0	0	0	0	0	0	
158052017.339113	-8.36835477557375	171.492035082092	0	0	0	0	0	0	
159052350.783594	-8.34111222621665	168.815259009516	0	0	0	0	0	0	
160052684.228076	-8.29705113145948	166.320155338098	0	0	0	0	0	0	
161053017.672557	-8.23631960229469	163.729049718561	0	0	0	0	0	0	
162053351.117039	-8.17930391834826	161.091475039986	0	0	0	0	0	0	
163053684.56152	-8.1491882379393	158.378584825209	0	0	0	0	0	0	
164054018.006002	-8.13315410689423	155.828493808567	0	0	0	0	0	0	
165054351.450483	-8.10039807859153	153.443803040652	0	0	0	0	0	0	
166054684.894965	-8.06601281639524	150.946830450957	0	0	0	0	0	0	
167055018.339446	-8.0368241803923	148.543449785527	0	0	0	0	0	0	
168055351.783928	-8.02049180362502	146.039734139987	0	0	0	0	0	0	
169055685.228409	-8.02726230761161	143.69498583323	0	0	0	0	0	0	
170056018.672891	-8.02315334856677	141.540820094231	0	0	0	0	0	0	
171056352.117372	-7.99045424812062	139.352302805543	0	0	0	0	0	0	
172056685.561854	-7.94322848127865	137.067201810934	0	0	0	0	0	0	
173057019.006335	-7.91346486400712	134.559410739383	0	0	0	0	0	0	
174057352.450817	-7.92184366794208	132.024235207326	0	0	0	0	0	0	
175057685.895298	-7.9360711799289	129.832123581302	0	0	0	0	0	0	
176058019.33978	-7.91953307565963	127.563176347942	0	0	0	0	0	0	
177058352.784261	-7.91156318781762	125.229774571368	0	0	0	0	0	0	
178058686.228743	-7.91142337219074	122.883248032501	0	0	0	0	0	0	
179059019.673224	-7.91872282714341	120.468798222459	0	0	0	0	0	0	
180059353.117706	-7.95531074635045	118.325328166175	0	0	0	0	0	0	
181059686.562187	-7.9502507821159	116.251069342861	0	0	0	0	0	0	
182060020.006669	-7.92682051155534	114.04573365587	0	0	0	0	0	0	
183060353.45115	-7.91244670547577	111.900398158122	0	0	0	0	0	0	
184060686.895632	-7.88573455584779	109.513595971095	0	0	0	0	0	0	
185061020.340113	-7.89746628475977	107.186811453265	0	0	0	0	0	0	
186061353.784595	-7.91989333450362	105.17862345814	0	0	0	0	0	0	
187061687.229076	-7.88408975305142	103.303127280717	0	0	0	0	0	0	
188062020.673558	-7.82896665463526	101.08043048591	0	0	0	0	0	0	
189062354.118039	-7.81323691884078	98.7182880765753	0	0	0	0	0	0	
190062687.562521	-7.81322051937136	96.5652164961468	0	0	0	0	0	0	
191063021.007002	-7.80998444804229	94.5919191270825	0	0	0	0	0	0	
192063354.451484	-7.77673612529624	92.7573661525618	0	0	0	0	0	0	
193063687.895965	-7.71817564241444	90.6479087287613	0	0	0	0	0	0	
194064021.340447	-7.69605690403649	88.4762920562787	0	0	0	0	0	0	
195064354.784928	-7.69181820101327	86.4674851463924	0	0	0	0	0	0	
196064688.229409	-7.67240562543428	84.5923560901211	0	0	0	0	0	0	
197065021.673891	-7.62562019410981	82.7104357228771	0	0	0	0	0	0	
198065355.118372	-7.59433075888078	80.6819696675446	0	0	0	0	0	0	
199065688.562854	-7.57378425593828	78.6143820321775	0	0	0	0	0	0	
200066022.007335	-7.5776064962213	76.683980079377	0	0	0	0	0	0	
201066355.451817	-7.57387078584921	74.8235469666875	0	0	0	0	0	0	
202066688.896298	-7.55109421268376	72.9496156701487	0	0	0	0	0	0	
203067022.34078	-7.53541121036146	70.9865534431269	0	0	0	0	0	0	
204067355.785261	-7.53195502053007	68.922127067258	0	0	0	0	0	0	
205067689.229743	-7.54186534624968	66.9111947337556	0	0	0	0	0	0	
206068022.674224	-7.5821611137703	64.99053693205	0	0	0	0	0	0	
207068356.118706	-7.57836266167419	63.2181375021772	0	0	0	0	0	0	
208068689.563187	-7.56288504227482	61.2651361472731	0	0	0	0	0	0	
209069023.007669	-7.5576238713363	59.1408335387284	0	0	0	0	0	0	
210069356.45215	-7.58981383976318	57.1013193726598	0	0	0	0	0	0	
211069689.896632	-7.61601460702779	55.2058580472112	0	0	0	0	0	0	
212070023.341113	-7.61519932136446	53.4154877480268	0	0	0	0	0	0	
213070356.785595	-7.61046250233924	51.3494524903463	0	0	0	0	0	0	
214070690.230076	-7.60717711315454	49.3300553698529	0	0	0	0	0	0	
215071023.674558	-7.61472166638515	47.174321110949	0	0	0	0	0	0	
216071357.119039	-7.64529885167265	45.1998400827441	0	0	0	0	0	0	
217071690.563521	-7.64992363446207	43.2957567662655	0	0	0	0	0	0	
218072024.008002	-7.64263448148348	41.3528384983588	0	0	0	0	0	0	
219072357.452484	-7.63950711537164	39.2642583035127	0	0	0	0	0	0	
220072690.896965	-7.65874533411785	37.2667870787171	0	0	0	0	0	0	
221073024.341447	-7.66734594237598	35.3446278956795	0	0	0	0	0	0	
222073357.785928	-7.66424439426484	33.4755718600575	0	0	0	0	0	0	
223073691.23041	-7.6622536769707	31.6732615223745	0	0	0	0	0	0	
224074024.674891	-7.6319557205536	29.7390101650159	0	0	0	0	0	0	
225074358.119373	-7.62059144609124	27.7532905538265	0	0	0	0	0	0	
226074691.563854	-7.6160227572537	25.7667665018605	0	0	0	0	0	0	
227075025.008336	-7.63354536784862	23.8569417219487	0	0	0	0	0	0	
228075358.452817	-7.63296926915366	22.2076286550541	0	0	0	0	0	0	
229075691.897299	-7.59820846014685	20.3478039083846	0	0	0	0	0	0	
230076025.34178	-7.59928671619566	18.3711296703634	0	0	0	0	0	0	
231076358.786262	-7.62321147890404	16.5635039028299	0	0	0	0	0	0	
232076692.230743	-7.63746721854337	14.8410555540215	0	0	0	0	0	0	
233077025.675225	-7.62989302457634	13.2232822978377	0	0	0	0	0	0	
234077359.119706	-7.62696192945309	11.4265455579343	0	0	0	0	0	0	
235077692.564188	-7.62094763867161	9.65964994193548	0	0	0	0	0	0	
236078026.008669	-7.62238634606919	7.83566616112064	0	0	0	0	0	0	
237078359.453151	-7.63664822980283	5.94253038433222	0	0	0	0	0	0	
238078692.897632	-7.6622554523228	4.27420198075892	0	0	0	0	0	0	
239079026.342114	-7.6664128240006	2.44821364808172	0	0	0	0	0	0	
240079359.786595	-7.68630561010152	0.61457836501557	0	0	0	0	0	0	
241079693.231077	-7.69091699374345	-1.17543140664742	0	0	0	0	0	0	
242080026.675558	-7.71267761789884	-3.08647593214656	0	0	0	0	0	0	
243080360.12004	-7.74447427251043	-4.84880809166785	0	0	0	0	0	0	
244080693.564521	-7.75557876755579	-6.67384642891108	0	0	0	0	0	0	
245081027.009003	-7.76564757921978	-8.51813382146243	0	0	0	0	0	0	
246081360.453484	-7.77252359602704	-10.3315361937999	0	0	0	0	0	0	
247081693.897966	-7.77702124051242	-12.3129063250696	0	0	0	0	0	0	
248082027.342447	-7.79794841664848	-14.1448143878301	0	0	0	0	0	0	
249082360.786929	-7.81262194776847	-15.9784421921663	0	0	0	0	0	0	
250082694.23141	-7.79811398672694	-17.8839446714665	0	0	0	0	0	0	
251083027.675892	-7.80968984381039	-19.8091430826122	0	0	0	0	0	0	
252083361.120373	-7.81383372676015	-21.6742982877362	0	0	0	0	0	0	
253083694.564855	-7.79962143482428	-23.5687746021897	0	0	0	0	0	0	
254084028.009336	-7.8073766688354	-25.5435985639284	0	0	0	0	0	0	
255084361.453818	-7.79901449441951	-27.3909530166805	0	0	0	0	0	0	
256084694.898299	-7.79671823096171	-29.3376121517691	0	0	0	0	0	0	
257085028.342781	-7.7883277722982	-31.2708660394035	0	0	0	0	0	0	
258085361.787262	-7.79202763341926	-33.2121453001775	0	0	0	0	0	0	
259085695.231743	-7.81986275504129	-35.1016826652474	0	0	0	0	0	0	
260086028.676225	-7.79984300067937	-36.7843491259301	0	0	0	0	0	0	
261086362.120706	-7.79414187318265	-38.6834397060022	0	0	0	0	0	0	
262086695.565188	-7.79225486148821	-40.5594542587037	0	0	0	0	0	0	
263087029.009669	-7.79416318533548	-42.5043350126411	0	0	0	0	0	0	
264087362.454151	-7.82771220924901	-44.2809132336548	0	0	0	0	0	0	
265087695.898632	-7.82209986183283	-46.0633698938131	0	0	0	0	0	0	
266088029.343114	-7.82156842871364	-47.8789096411515	0	0	0	0	0	0	
267088362.787595	-7.82127520182851	-49.8584753888007	0	0	0	0	0	0	
268088696.232077	-7.84862902371514	-51.8461065545909	0	0	0	0	0	0	
269089029.676558	-7.90254632304529	-53.6672905505876	0	0	0	0	0	0	
270089363.12104	-7.91355138158336	-55.4003205579737	0	0	0	0	0	0	
271089696.565521	-7.93051782734978	-57.2646880930088	0	0	0	0	0	0	
272090030.010003	-7.95890061181413	-59.3181867700312	0	0	0	0	0	0	
273090363.454484	-8.00715839106369	-61.1362645296258	0	0	0	0	0	0	
274090696.898966	-8.04245134049102	-62.9193837825287	0	0	0	0	0	0	
275091030.343447	-8.06630087934177	-64.8723607843571	0	0	0	0	0	0	
276091363.787929	-8.11130087002469	-66.6244055763232	0	0	0	0	0	0	
277091697.23241	-8.11714194599066	-68.4279062699024	0	0	0	0	0	0	
278092030.676892	-8.13872010110188	-70.4284221250896	0	0	0	0	0	0	
279092364.121373	-8.17597760006832	-72.3447762111452	0	0	0	0	0	0	
280092697.565855	-8.21343285560144	-74.3653840747094	0	0	0	0	0	0	
281093031.010336	-8.26677370177756	-76.1032681958153	0	0	0	0	0	0	
282093364.454818	-8.26979794309809	-78.0262238265802	0	0	0	0	0	0	
283093697.899299	-8.30089484316271	-80.0193682509583	0	0	0	0	0	0	
284094031.343781	-8.3422530687381	-81.8668631196362	0	0	0	0	0	0	
285094364.788262	-8.37284333867191	-83.7912455287122	0	0	0	0	0	0	
286094698.232744	-8.40719036800975	-85.408797400967	0	0	0	0	0	0	
287095031.677225	-8.40223158973697	-87.3274949253393	0	0	0	0	0	0	
288095365.121707	-8.4270302716385	-89.1963895552127	0	0	0	0	0	0	
289095698.566188	-8.44355090508886	-90.9997063905668	0	0	0	0	0	0	
290096032.01067	-8.45471865921197	-92.8805717835634	0	0	0	0	0	0	
291096365.455151	-8.4702291177641	-94.6295451136998	0	0	0	0	0	0	
292096698.899633	-8.49177531259175	-96.5722663056908	0	0	0	0	0	0	
293097032.344114	-8.51571582706381	-98.2361227715302	0	0	0	0	0	0	
294097365.788596	-8.53113213576585	-99.9824220114515	0	0	0	0	0	0	
295097699.233077	-8.56125040761055	-101.753966519731	0	0	0	0	0	0	
296098032.677559	-8.56514227138365	-103.332221642883	0	0	0	0	0	0	
297098366.12204	-8.57104104614787	-105.191068499251	0	0	0	0	0	0	
