!Keysight Technologies N9923A: A.08.09
!Date: Thursday, 02 August 2018 07:55:09
!Timezone: (GMT+08:00) Kuala Lumpur, Singapore
!Model: N9923A
!Serial: MY52412143
!GPS Latitude: 
!GPS Longitude: 
!GPS TimeStamp: 0001-01-01 00:00:00Z
!GPS Seconds Since Last Read: 0
!CHECKSUM:0090205183
!Correction: S11(ON U)S21()S12()S22()
!S2P File: Measurements:S11,S21,S12,S22:
# Hz S DB R 50
2000000	-4.17325798929632	22.9075606701669	0	0	0	0	0	0	
3000333.44448149	-3.90556590438	12.9063884925098	0	0	0	0	0	0	
4000666.88896299	-3.81674180121657	6.59346846848144	0	0	0	0	0	0	
5001000.33344448	-3.79185905667033	1.96377528407106	0	0	0	0	0	0	
6001333.77792598	-3.80135707717659	-1.81345552785727	0	0	0	0	0	0	
7001667.22240747	-3.82572221606696	-5.13474240749794	0	0	0	0	0	0	
8002000.66688896	-3.85674952681008	-8.18504443976559	0	0	0	0	0	0	
9002334.11137046	-3.89425696638528	-11.0477888622865	0	0	0	0	0	0	
10002667.555852	-3.93215617006913	-13.8217918363634	0	0	0	0	0	0	
11003001.0003334	-3.96864604841327	-16.4826161780294	0	0	0	0	0	0	
12003334.4448149	-4.00233428724351	-19.1428858213188	0	0	0	0	0	0	
13003667.8892964	-4.02646432028855	-21.7337454954104	0	0	0	0	0	0	
14004001.3337779	-4.04684969860001	-24.3009351697988	0	0	0	0	0	0	
15004334.7782594	-4.05857955616279	-26.8638858751633	0	0	0	0	0	0	
16004668.2227409	-4.0606136135257	-29.3952904903176	0	0	0	0	0	0	
17005001.6672224	-4.05694101615343	-31.8778865081471	0	0	0	0	0	0	
18005335.1117039	-4.04415131275753	-34.3710504956952	0	0	0	0	0	0	
19005668.5561854	-4.02191840236977	-36.8041226790397	0	0	0	0	0	0	
20006002.0006669	-3.99206800027495	-39.2086042650358	0	0	0	0	0	0	
21006335.4451484	-3.95407770411959	-41.5585778559596	0	0	0	0	0	0	
22006668.8896299	-3.91137645789462	-43.8854251752602	0	0	0	0	0	0	
23007002.3341114	-3.86930433423901	-46.1581707817168	0	0	0	0	0	0	
24007335.7785929	-3.8243776160838	-48.3946765600014	0	0	0	0	0	0	
25007669.2230743	-3.78508168319835	-50.6041745126986	0	0	0	0	0	0	
26008002.6675558	-3.74086882425532	-52.7614327607041	0	0	0	0	0	0	
27008336.1120373	-3.69900813297363	-54.8752973738755	0	0	0	0	0	0	
28008669.5565188	-3.66045687273339	-56.9119645235397	0	0	0	0	0	0	
29009003.0010003	-3.63464072406536	-58.979607199934	0	0	0	0	0	0	
30009336.4454818	-3.6131573976372	-60.9960751483144	0	0	0	0	0	0	
31009669.8899633	-3.59551197850591	-63.0391676183473	0	0	0	0	0	0	
32010003.3344448	-3.59706316596866	-65.0798705847155	0	0	0	0	0	0	
33010336.7789263	-3.59808506736341	-67.1400908643869	0	0	0	0	0	0	
34010670.2234078	-3.60905091667281	-69.2109350433728	0	0	0	0	0	0	
35011003.6678893	-3.62872638059537	-71.3374308462604	0	0	0	0	0	0	
36011337.1123708	-3.65358689994203	-73.4796463627599	0	0	0	0	0	0	
37011670.5568523	-3.68706172220523	-75.6825917765749	0	0	0	0	0	0	
38012004.0013337	-3.71784761395844	-77.9003051042751	0	0	0	0	0	0	
39012337.4458152	-3.75034260348333	-80.172248607192	0	0	0	0	0	0	
40012670.8902967	-3.78549052942826	-82.5302361014048	0	0	0	0	0	0	
41013004.3347782	-3.81802738140568	-84.9456167854494	0	0	0	0	0	0	
42013337.7792597	-3.84930728032015	-87.3851695606477	0	0	0	0	0	0	
43013671.2237412	-3.87144869862407	-89.8903676207196	0	0	0	0	0	0	
44014004.6682227	-3.89032730327928	-92.4213961889304	0	0	0	0	0	0	
45014338.1127042	-3.90151088253843	-95.0047826965376	0	0	0	0	0	0	
46014671.5571857	-3.91157379310823	-97.5864328720535	0	0	0	0	0	0	
47015005.0016672	-3.90064534515525	-100.236676424587	0	0	0	0	0	0	
48015338.4461487	-3.88945915096804	-102.889104492012	0	0	0	0	0	0	
49015671.8906302	-3.86606896735554	-105.538511477612	0	0	0	0	0	0	
50016005.3351116	-3.83905006007401	-108.195059677557	0	0	0	0	0	0	
51016338.7795931	-3.80732215019514	-110.821192345164	0	0	0	0	0	0	
52016672.2240746	-3.76112765837132	-113.434924781356	0	0	0	0	0	0	
53017005.6685561	-3.71449570235815	-116.028586918642	0	0	0	0	0	0	
54017339.1130376	-3.6669819393863	-118.58651551003	0	0	0	0	0	0	
55017672.5575191	-3.61462996715056	-121.135047399893	0	0	0	0	0	0	
56018006.0020006	-3.56571973990706	-123.63083969231	0	0	0	0	0	0	
57018339.4464821	-3.51784770323572	-126.124313690155	0	0	0	0	0	0	
58018672.8909636	-3.47258359053941	-128.625988715671	0	0	0	0	0	0	
59019006.3354451	-3.43097408568456	-131.12464146311	0	0	0	0	0	0	
60019339.7799266	-3.39933947906718	-133.639265498093	0	0	0	0	0	0	
61019673.2244081	-3.37985271101656	-136.187187716794	0	0	0	0	0	0	
62020006.6688896	-3.36893819193036	-138.751965867076	0	0	0	0	0	0	
63020340.113371	-3.37064468114407	-141.36530703668	0	0	0	0	0	0	
64020673.5578525	-3.38491521549048	-143.99406537932	0	0	0	0	0	0	
65021007.002334	-3.40347013240277	-146.672855732022	0	0	0	0	0	0	
66021340.4468155	-3.43333804294883	-149.403128422985	0	0	0	0	0	0	
67021673.891297	-3.46704717890149	-152.231247766898	0	0	0	0	0	0	
68022007.3357785	-3.50707993928139	-155.1477906357	0	0	0	0	0	0	
69022340.78026	-3.55240734738378	-158.16763038892	0	0	0	0	0	0	
70022674.2247415	-3.60013296521615	-161.281348760503	0	0	0	0	0	0	
71023007.669223	-3.64286215114885	-164.497670248404	0	0	0	0	0	0	
72023341.1137045	-3.68493955417585	-167.764837013036	0	0	0	0	0	0	
73023674.558186	-3.71835148173934	-171.189350901421	0	0	0	0	0	0	
74024008.0026675	-3.74725423363075	-174.717659091842	0	0	0	0	0	0	
75024341.4471489	-3.76870950195113	-178.375882360316	0	0	0	0	0	0	
76024674.8916304	-3.78881025275467	177.896083342335	0	0	0	0	0	0	
77025008.3361119	-3.79747049544396	174.049747861509	0	0	0	0	0	0	
78025341.7805934	-3.80796645432303	170.181541790903	0	0	0	0	0	0	
79025675.2250749	-3.81309664261943	166.262168668671	0	0	0	0	0	0	
80026008.6695564	-3.81527881141381	162.35966377996	0	0	0	0	0	0	
81026342.1140379	-3.80796519839107	158.468336697665	0	0	0	0	0	0	
82026675.5585194	-3.78608339870282	154.574315089179	0	0	0	0	0	0	
83027009.0030009	-3.75949793027821	150.619439623859	0	0	0	0	0	0	
84027342.4474824	-3.73641516148342	146.592892594317	0	0	0	0	0	0	
85027675.8919639	-3.72182283931953	142.52083178637	0	0	0	0	0	0	
86028009.3364454	-3.72921239334582	138.374329971356	0	0	0	0	0	0	
87028342.7809269	-3.74975947481515	134.275295645213	0	0	0	0	0	0	
88028676.2254083	-3.78448577088143	130.163537454827	0	0	0	0	0	0	
89029009.6698898	-3.8328364677815	125.964156836699	0	0	0	0	0	0	
90029343.1143713	-3.90083694666736	121.695846604445	0	0	0	0	0	0	
91029676.5588528	-3.98625106552911	117.365955539462	0	0	0	0	0	0	
92030010.0033343	-4.09398907213423	112.917587614219	0	0	0	0	0	0	
93030343.4478158	-4.2333097463823	108.325796040253	0	0	0	0	0	0	
94030676.8922973	-4.39115786019754	103.63361272472	0	0	0	0	0	0	
95031010.3367788	-4.58095047047525	98.8371802274212	0	0	0	0	0	0	
96031343.7812603	-4.73310818261462	93.5849180673299	0	0	0	0	0	0	
97031677.2257418	-4.98922415712799	88.9016176911882	0	0	0	0	0	0	
98032010.6702233	-5.21151798643328	83.7998709561529	0	0	0	0	0	0	
99032344.1147048	-5.4241735234265	78.5433509464389	0	0	0	0	0	0	
100032677.559186	-5.62681550844997	73.038237089642	0	0	0	0	0	0	
101033011.003668	-5.85651869435043	67.361356573545	0	0	0	0	0	0	
102033344.448149	-6.0788343609659	61.7508179211949	0	0	0	0	0	0	
103033677.892631	-6.26871088173944	56.0219453073058	0	0	0	0	0	0	
104034011.337112	-6.45235286241321	50.2279124804009	0	0	0	0	0	0	
105034344.781594	-6.6177236173194	44.3914884317667	0	0	0	0	0	0	
106034678.226075	-6.76974070555782	38.5863017616332	0	0	0	0	0	0	
107035011.670557	-6.90572741325078	32.8214629570736	0	0	0	0	0	0	
108035345.115038	-7.0173681956856	27.14911280564	0	0	0	0	0	0	
109035678.55952	-7.10189856235818	21.5708572799582	0	0	0	0	0	0	
110036012.004001	-7.17472069207705	15.8162991255785	0	0	0	0	0	0	
111036345.448483	-7.27444084695383	10.0752635893563	0	0	0	0	0	0	
112036678.892964	-7.39357245011503	4.48142030564094	0	0	0	0	0	0	
113037012.337446	-7.53605082900378	-0.971123065597267	0	0	0	0	0	0	
114037345.781927	-7.68886599260009	-6.33020847264081	0	0	0	0	0	0	
115037679.226409	-7.8460758365138	-11.4900235895588	0	0	0	0	0	0	
116038012.67089	-7.9934258235648	-16.6869609856383	0	0	0	0	0	0	
117038346.115372	-8.1681893070202	-21.9230385446361	0	0	0	0	0	0	
118038679.559853	-8.34610930516233	-27.0867401877948	0	0	0	0	0	0	
119039013.004335	-8.51197359339727	-32.5232572495799	0	0	0	0	0	0	
120039346.448816	-8.71741810396889	-37.9931048794471	0	0	0	0	0	0	
121039679.893298	-8.92830043972423	-43.3864330363389	0	0	0	0	0	0	
122040013.337779	-9.11457021280007	-48.7980206011522	0	0	0	0	0	0	
123040346.782261	-9.28316820244705	-54.2527809893406	0	0	0	0	0	0	
124040680.226742	-9.42141994842418	-59.6694168058166	0	0	0	0	0	0	
125041013.671224	-9.53376820526212	-65.0577566588439	0	0	0	0	0	0	
126041347.115705	-9.59195101538403	-70.4460353865312	0	0	0	0	0	0	
127041680.560187	-9.61234272830048	-75.774181002502	0	0	0	0	0	0	
128042014.004668	-9.58781711748517	-81.1631577435879	0	0	0	0	0	0	
129042347.44915	-9.5474402814197	-86.4794964145227	0	0	0	0	0	0	
130042680.893631	-9.48886315214887	-91.6338891537994	0	0	0	0	0	0	
131043014.338113	-9.42681257895967	-96.4648280930179	0	0	0	0	0	0	
132043347.782594	-9.31497879996441	-101.177354470115	0	0	0	0	0	0	
133043681.227075	-9.20590591608112	-105.678448887584	0	0	0	0	0	0	
134044014.671557	-9.10827401478596	-110.11123010233	0	0	0	0	0	0	
135044348.116038	-9.03912044413984	-114.205458688426	0	0	0	0	0	0	
136044681.56052	-8.95406000231919	-117.930728141339	0	0	0	0	0	0	
137045015.005001	-8.87107803682805	-121.578400251124	0	0	0	0	0	0	
138045348.449483	-8.81621016236785	-125.047651961272	0	0	0	0	0	0	
139045681.893964	-8.76334304128758	-128.355412551267	0	0	0	0	0	0	
140046015.338446	-8.73050089699787	-131.575761044045	0	0	0	0	0	0	
141046348.782927	-8.70860102775195	-134.719284000136	0	0	0	0	0	0	
142046682.227409	-8.69964095835617	-137.846092954681	0	0	0	0	0	0	
143047015.67189	-8.71089932336544	-141.004026512403	0	0	0	0	0	0	
144047349.116372	-8.72939501250374	-144.02980943292	0	0	0	0	0	0	
145047682.560853	-8.75098348253588	-147.145294077604	0	0	0	0	0	0	
146048016.005335	-8.77578906937833	-150.379717159134	0	0	0	0	0	0	
147048349.449816	-8.81586448403297	-153.683873601653	0	0	0	0	0	0	
148048682.894298	-8.85211736278816	-157.032906502438	0	0	0	0	0	0	
149049016.338779	-8.91715456170409	-160.532376423602	0	0	0	0	0	0	
150049349.783261	-8.97870817828582	-163.795274399569	0	0	0	0	0	0	
151049683.227742	-9.0125774370354	-167.074437814368	0	0	0	0	0	0	
152050016.672224	-9.01556470119074	-170.315862444715	0	0	0	0	0	0	
153050350.116705	-8.97952247033105	-173.738559741346	0	0	0	0	0	0	
154050683.561187	-8.94846201361186	-177.300460597251	0	0	0	0	0	0	
155051017.005668	-8.93164012507555	179.19439307393	0	0	0	0	0	0	
156051350.45015	-8.90422113884779	175.79400446034	0	0	0	0	0	0	
157051683.894631	-8.86615840839675	172.607645028045	0	0	0	0	0	0	
158052017.339113	-8.82177060636672	169.680903607901	0	0	0	0	0	0	
159052350.783594	-8.73788362879616	166.858792824394	0	0	0	0	0	0	
160052684.228076	-8.63915067854336	164.167619149325	0	0	0	0	0	0	
161053017.672557	-8.53522859685592	161.496708084376	0	0	0	0	0	0	
162053351.117039	-8.43310041027642	159.032291633565	0	0	0	0	0	0	
163053684.56152	-8.32453734008194	156.590468185615	0	0	0	0	0	0	
164054018.006002	-8.22833518725407	154.276530493837	0	0	0	0	0	0	
165054351.450483	-8.13949113643277	151.989401758977	0	0	0	0	0	0	
166054684.894965	-8.06818882707499	149.806767395038	0	0	0	0	0	0	
167055018.339446	-8.01678922057491	147.687527095785	0	0	0	0	0	0	
168055351.783928	-7.97969521637108	145.849863842464	0	0	0	0	0	0	
169055685.228409	-7.92329200410109	144.047426942465	0	0	0	0	0	0	
170056018.672891	-7.86503415655799	142.019133731892	0	0	0	0	0	0	
171056352.117372	-7.84677603852663	139.922359731442	0	0	0	0	0	0	
172056685.561854	-7.85894599435918	137.851044571304	0	0	0	0	0	0	
173057019.006335	-7.88803392375926	135.854401365046	0	0	0	0	0	0	
174057352.450817	-7.92417068549401	133.815837343365	0	0	0	0	0	0	
175057685.895298	-7.98021983481882	131.828920591538	0	0	0	0	0	0	
176058019.33978	-8.03192978934147	129.806284249314	0	0	0	0	0	0	
177058352.784261	-8.08135777377637	127.801858705695	0	0	0	0	0	0	
178058686.228743	-8.11839856095556	125.689131325289	0	0	0	0	0	0	
179059019.673224	-8.15077942134625	123.475732236307	0	0	0	0	0	0	
180059353.117706	-8.17802211150461	121.076085899065	0	0	0	0	0	0	
181059686.562187	-8.21525057544289	118.636242937496	0	0	0	0	0	0	
182060020.006669	-8.24137224464356	116.079724236789	0	0	0	0	0	0	
183060353.45115	-8.27068594204494	113.581067502937	0	0	0	0	0	0	
184060686.895632	-8.28780021412212	111.083169736172	0	0	0	0	0	0	
185061020.340113	-8.28631269191477	108.687714875161	0	0	0	0	0	0	
186061353.784595	-8.2513000527771	106.37997101281	0	0	0	0	0	0	
187061687.229076	-8.16967996784018	103.807687002461	0	0	0	0	0	0	
188062020.673558	-8.12653938629517	101.172579689363	0	0	0	0	0	0	
189062354.118039	-8.08583861841973	98.7503832304896	0	0	0	0	0	0	
190062687.562521	-8.02039218500522	96.4813496622485	0	0	0	0	0	0	
191063021.007002	-7.94209185098255	94.2599028515392	0	0	0	0	0	0	
192063354.451484	-7.83847229678553	92.1231243343515	0	0	0	0	0	0	
193063687.895965	-7.74489763354915	89.922193453794	0	0	0	0	0	0	
194064021.340447	-7.65277069342274	87.8484757020465	0	0	0	0	0	0	
195064354.784928	-7.56729631628803	85.7621701354442	0	0	0	0	0	0	
196064688.229409	-7.50985284691947	83.8011241079919	0	0	0	0	0	0	
197065021.673891	-7.4528809664506	82.0464847699503	0	0	0	0	0	0	
198065355.118372	-7.38765134702924	80.3107231450457	0	0	0	0	0	0	
199065688.562854	-7.34305630377097	78.5278687492186	0	0	0	0	0	0	
200066022.007335	-7.31564920957887	76.88773781993	0	0	0	0	0	0	
201066355.451817	-7.2832511730028	75.179305285447	0	0	0	0	0	0	
202066688.896298	-7.25619791391931	73.3630592726723	0	0	0	0	0	0	
203067022.34078	-7.26275556284257	71.4776172145606	0	0	0	0	0	0	
204067355.785261	-7.297874291392	69.6384724509238	0	0	0	0	0	0	
205067689.229743	-7.3556045598871	67.7771504098972	0	0	0	0	0	0	
206068022.674224	-7.41382020276927	66.0794437438053	0	0	0	0	0	0	
207068356.118706	-7.46107141329246	64.3613825336239	0	0	0	0	0	0	
208068689.563187	-7.50294162729174	62.434908331021	0	0	0	0	0	0	
209069023.007669	-7.5473293724211	60.3842356440842	0	0	0	0	0	0	
210069356.45215	-7.60383059030798	58.1979484759394	0	0	0	0	0	0	
211069689.896632	-7.68268268043463	55.9779750878479	0	0	0	0	0	0	
212070023.341113	-7.77717070729945	53.7314703127248	0	0	0	0	0	0	
213070356.785595	-7.85069896042611	51.7037442677188	0	0	0	0	0	0	
214070690.230076	-7.89094215792922	49.5516344341806	0	0	0	0	0	0	
215071023.674558	-7.91356474648036	47.2711968108433	0	0	0	0	0	0	
216071357.119039	-7.93969858623669	44.9163485082781	0	0	0	0	0	0	
217071690.563521	-7.96116453924979	42.6053470942239	0	0	0	0	0	0	
218072024.008002	-7.96729662982082	40.3306479816617	0	0	0	0	0	0	
219072357.452484	-7.96101486293751	38.1182409474165	0	0	0	0	0	0	
220072690.896965	-7.9365560091264	35.9300113854512	0	0	0	0	0	0	
221073024.341447	-7.90591203177618	33.7360413795832	0	0	0	0	0	0	
222073357.785928	-7.86913722386083	31.6673536673717	0	0	0	0	0	0	
223073691.23041	-7.8174456265029	29.6966358653319	0	0	0	0	0	0	
224074024.674891	-7.75541007059358	27.7196698859048	0	0	0	0	0	0	
225074358.119373	-7.69360244983389	25.8159414285701	0	0	0	0	0	0	
226074691.563854	-7.6476502190176	23.8024685066369	0	0	0	0	0	0	
227075025.008336	-7.62452303968516	22.0127605886634	0	0	0	0	0	0	
228075358.452817	-7.61568979828597	20.4661415117186	0	0	0	0	0	0	
229075691.897299	-7.57871298058867	19.0365744234649	0	0	0	0	0	0	
230076025.34178	-7.53953826824835	17.6012363067706	0	0	0	0	0	0	
231076358.786262	-7.51113499793656	16.1081258245581	0	0	0	0	0	0	
232076692.230743	-7.50841087099419	14.6064482882509	0	0	0	0	0	0	
233077025.675225	-7.51121036537997	13.228105032892	0	0	0	0	0	0	
234077359.119706	-7.51768629875693	11.8727446220873	0	0	0	0	0	0	
235077692.564188	-7.53628383129914	10.3523558647194	0	0	0	0	0	0	
236078026.008669	-7.5715387455397	8.81298444301608	0	0	0	0	0	0	
237078359.453151	-7.62442736563229	7.28279358930634	0	0	0	0	0	0	
238078692.897632	-7.67984871543291	5.77056254493562	0	0	0	0	0	0	
239079026.342114	-7.72656678027245	4.14045764042997	0	0	0	0	0	0	
240079359.786595	-7.78113742193715	2.36502100033991	0	0	0	0	0	0	
241079693.231077	-7.85025217001273	0.379430650995315	0	0	0	0	0	0	
242080026.675558	-7.94851110048182	-1.52112305078783	0	0	0	0	0	0	
243080360.12004	-8.04232825189602	-3.34492908964117	0	0	0	0	0	0	
244080693.564521	-8.10960339121821	-5.16826542026562	0	0	0	0	0	0	
245081027.009003	-8.15233650507799	-7.19737037514379	0	0	0	0	0	0	
246081360.453484	-8.19431883259282	-9.31160915253042	0	0	0	0	0	0	
247081693.897966	-8.23147298691848	-11.4070902464435	0	0	0	0	0	0	
248082027.342447	-8.23057609670848	-13.5406974349016	0	0	0	0	0	0	
249082360.786929	-8.21714179371279	-16.0059944506025	0	0	0	0	0	0	
250082694.23141	-8.22497639608551	-18.4472134222048	0	0	0	0	0	0	
251083027.675892	-8.23765339668996	-20.6991533054183	0	0	0	0	0	0	
252083361.120373	-8.21059418800409	-22.7390634093582	0	0	0	0	0	0	
253083694.564855	-8.15038170784944	-24.8745596523276	0	0	0	0	0	0	
254084028.009336	-8.08637342212971	-27.1302796566267	0	0	0	0	0	0	
255084361.453818	-8.04223537603125	-29.2654555354687	0	0	0	0	0	0	
256084694.898299	-7.99070198020348	-31.1776933494161	0	0	0	0	0	0	
257085028.342781	-7.9246601303144	-33.0770439058392	0	0	0	0	0	0	
258085361.787262	-7.85123167262379	-34.9089192820899	0	0	0	0	0	0	
259085695.231743	-7.78289146211987	-36.7488358563031	0	0	0	0	0	0	
260086028.676225	-7.72713642776527	-38.5291590674754	0	0	0	0	0	0	
261086362.120706	-7.68546483817633	-40.284254392416	0	0	0	0	0	0	
262086695.565188	-7.65833356509114	-41.9747404340499	0	0	0	0	0	0	
263087029.009669	-7.65741500156444	-43.5456072614961	0	0	0	0	0	0	
264087362.454151	-7.64837161700336	-44.9765830110295	0	0	0	0	0	0	
265087695.898632	-7.64443951762746	-46.4768441240185	0	0	0	0	0	0	
266088029.343114	-7.65672468904119	-47.9300372861279	0	0	0	0	0	0	
267088362.787595	-7.6643446169621	-49.4699202098695	0	0	0	0	0	0	
268088696.232077	-7.70408347640636	-51.2814146678948	0	0	0	0	0	0	
269089029.676558	-7.78226207537663	-52.8789759582905	0	0	0	0	0	0	
270089363.12104	-7.85330952409924	-54.4310023728496	0	0	0	0	0	0	
271089696.565521	-7.92054031311158	-56.204901670192	0	0	0	0	0	0	
272090030.010003	-8.01608258448515	-58.0293962640765	0	0	0	0	0	0	
273090363.454484	-8.12377812188454	-59.8318656275872	0	0	0	0	0	0	
274090696.898966	-8.21380746871594	-61.6405398680281	0	0	0	0	0	0	
275091030.343447	-8.30389299857731	-63.6212288222344	0	0	0	0	0	0	
276091363.787929	-8.40390728230548	-65.6200708149067	0	0	0	0	0	0	
277091697.23241	-8.48817086478268	-67.6257547140151	0	0	0	0	0	0	
278092030.676892	-8.55746885092783	-69.7933617817621	0	0	0	0	0	0	
279092364.121373	-8.62122513444811	-72.0342701837885	0	0	0	0	0	0	
280092697.565855	-8.6828525319132	-74.3350482628412	0	0	0	0	0	0	
281093031.010336	-8.71940626897224	-76.5887040221234	0	0	0	0	0	0	
282093364.454818	-8.74672191179892	-78.9900030283645	0	0	0	0	0	0	
283093697.899299	-8.78425597785911	-81.3856333889774	0	0	0	0	0	0	
284094031.343781	-8.81124070001619	-83.5677968805619	0	0	0	0	0	0	
285094364.788262	-8.81892413081522	-85.6273989780105	0	0	0	0	0	0	
286094698.232744	-8.78647357493157	-87.7033554023504	0	0	0	0	0	0	
287095031.677225	-8.76277071719635	-89.7862671080393	0	0	0	0	0	0	
288095365.121707	-8.72772369280277	-91.7139749408428	0	0	0	0	0	0	
289095698.566188	-8.70354268143174	-93.5149398780828	0	0	0	0	0	0	
290096032.01067	-8.65265639573444	-95.1848555031888	0	0	0	0	0	0	
291096365.455151	-8.59888823624077	-96.8917026507559	0	0	0	0	0	0	
292096698.899633	-8.5536752777557	-98.5024352514431	0	0	0	0	0	0	
293097032.344114	-8.51633892194704	-100.037966906552	0	0	0	0	0	0	
294097365.788596	-8.470276284131	-101.593489817935	0	0	0	0	0	0	
295097699.233077	-8.45677589831371	-103.098253563796	0	0	0	0	0	0	
296098032.677559	-8.44740144985744	-104.645732246595	0	0	0	0	0	0	
297098366.12204	-8.46941475152858	-106.027045869374	0	0	0	0	0	0	
