!Keysight Technologies N9923A: A.08.09
!Date: Thursday, 02 August 2018 07:57:54
!Timezone: (GMT+08:00) Kuala Lumpur, Singapore
!Model: N9923A
!Serial: MY52412143
!GPS Latitude: 
!GPS Longitude: 
!GPS TimeStamp: 0001-01-01 00:00:00Z
!GPS Seconds Since Last Read: 0
!CHECKSUM:1369773020
!Correction: S11(ON U)S21()S12()S22()
!S2P File: Measurements:S11,S21,S12,S22:
# Hz S DB R 50
2000000	-4.16409733306327	22.9849628401742	0	0	0	0	0	0	
3000333.44448149	-3.89672360121659	12.9641968178221	0	0	0	0	0	0	
4000666.88896299	-3.806841250081	6.63179265024564	0	0	0	0	0	0	
5001000.33344448	-3.78286878973667	1.99315043326924	0	0	0	0	0	0	
6001333.77792598	-3.79331061684387	-1.79380450756876	0	0	0	0	0	0	
7001667.22240747	-3.81767352659013	-5.11085558316528	0	0	0	0	0	0	
8002000.66688896	-3.84890215324615	-8.17312416080878	0	0	0	0	0	0	
9002334.11137046	-3.88983723840728	-11.0447502951791	0	0	0	0	0	0	
10002667.555852	-3.93081815438413	-13.8125676035499	0	0	0	0	0	0	
11003001.0003334	-3.96698007799235	-16.4834526979532	0	0	0	0	0	0	
12003334.4448149	-4.00422011059405	-19.1248762817683	0	0	0	0	0	0	
13003667.8892964	-4.02887977187886	-21.7252184457351	0	0	0	0	0	0	
14004001.3337779	-4.0496375743763	-24.2988879794744	0	0	0	0	0	0	
15004334.7782594	-4.07215921985049	-26.8265426556336	0	0	0	0	0	0	
16004668.2227409	-4.06817660600059	-29.3687390505639	0	0	0	0	0	0	
17005001.6672224	-4.06013897377895	-31.8600603761003	0	0	0	0	0	0	
18005335.1117039	-4.04696769888395	-34.338843010356	0	0	0	0	0	0	
19005668.5561854	-4.02564656975348	-36.775878762074	0	0	0	0	0	0	
20006002.0006669	-3.99453175253362	-39.1710646251099	0	0	0	0	0	0	
21006335.4451484	-3.95544794937099	-41.538687060786	0	0	0	0	0	0	
22006668.8896299	-3.91384086195551	-43.8472764495911	0	0	0	0	0	0	
23007002.3341114	-3.86753373910092	-46.1148614156298	0	0	0	0	0	0	
24007335.7785929	-3.82042328442157	-48.3357540848985	0	0	0	0	0	0	
25007669.2230743	-3.78030941790997	-50.5703098279544	0	0	0	0	0	0	
26008002.6675558	-3.73517881263528	-52.6888449999928	0	0	0	0	0	0	
27008336.1120373	-3.69321554840679	-54.814518848686	0	0	0	0	0	0	
28008669.5565188	-3.65562515656476	-56.8640163266847	0	0	0	0	0	0	
29009003.0010003	-3.62693464078288	-58.9117135694843	0	0	0	0	0	0	
30009336.4454818	-3.60187160426672	-60.9333103381567	0	0	0	0	0	0	
31009669.8899633	-3.58790432506324	-62.9735926344669	0	0	0	0	0	0	
32010003.3344448	-3.58562367050944	-65.0205457141983	0	0	0	0	0	0	
33010336.7789263	-3.59160809679193	-67.0683059650242	0	0	0	0	0	0	
34010670.2234078	-3.60101808082352	-69.1370099416412	0	0	0	0	0	0	
35011003.6678893	-3.62318620616886	-71.2514832890328	0	0	0	0	0	0	
36011337.1123708	-3.6483088638521	-73.4104727419824	0	0	0	0	0	0	
37011670.5568523	-3.68102626315741	-75.5935406830975	0	0	0	0	0	0	
38012004.0013337	-3.71450511697299	-77.8221020417051	0	0	0	0	0	0	
39012337.4458152	-3.74970815917681	-80.1099882679116	0	0	0	0	0	0	
40012670.8902967	-3.78515489477269	-82.468218261212	0	0	0	0	0	0	
41013004.3347782	-3.81845101412712	-84.8580025618952	0	0	0	0	0	0	
42013337.7792597	-3.85254306487438	-87.3014839627144	0	0	0	0	0	0	
43013671.2237412	-3.88046930216198	-89.7905150985236	0	0	0	0	0	0	
44014004.6682227	-3.90082956162748	-92.3348911180687	0	0	0	0	0	0	
45014338.1127042	-3.91333363283769	-94.8929589200405	0	0	0	0	0	0	
46014671.5571857	-3.91941946362831	-97.4876681467845	0	0	0	0	0	0	
47015005.0016672	-3.9133984597766	-100.128346959888	0	0	0	0	0	0	
48015338.4461487	-3.9005236367152	-102.788273319613	0	0	0	0	0	0	
49015671.8906302	-3.88191378888903	-105.426513028845	0	0	0	0	0	0	
50016005.3351116	-3.85368955478675	-108.086503271137	0	0	0	0	0	0	
51016338.7795931	-3.82063316370695	-110.701920003946	0	0	0	0	0	0	
52016672.2240746	-3.77337604185698	-113.318750029525	0	0	0	0	0	0	
53017005.6685561	-3.72682358887526	-115.8998616183	0	0	0	0	0	0	
54017339.1130376	-3.67579877613867	-118.468132062199	0	0	0	0	0	0	
55017672.5575191	-3.62240359624563	-121.02098095995	0	0	0	0	0	0	
56018006.0020006	-3.57678072216002	-123.511945928777	0	0	0	0	0	0	
57018339.4464821	-3.53184280541516	-125.999987487729	0	0	0	0	0	0	
58018672.8909636	-3.48944025726069	-128.469698122526	0	0	0	0	0	0	
59019006.3354451	-3.45126852678204	-130.94165848818	0	0	0	0	0	0	
60019339.7799266	-3.42204953153397	-133.408470677038	0	0	0	0	0	0	
61019673.2244081	-3.40276358057268	-135.912077623475	0	0	0	0	0	0	
62020006.6688896	-3.39160828937633	-138.424946093774	0	0	0	0	0	0	
63020340.113371	-3.39213764485844	-140.980255654191	0	0	0	0	0	0	
64020673.5578525	-3.40335180994885	-143.564914362339	0	0	0	0	0	0	
65021007.002334	-3.4225650785193	-146.199661155034	0	0	0	0	0	0	
66021340.4468155	-3.45136983674442	-148.898958700149	0	0	0	0	0	0	
67021673.891297	-3.48476486432846	-151.675425434909	0	0	0	0	0	0	
68022007.3357785	-3.52310552459337	-154.557991875411	0	0	0	0	0	0	
69022340.78026	-3.56594012566624	-157.528329491739	0	0	0	0	0	0	
70022674.2247415	-3.61244821760307	-160.605471273638	0	0	0	0	0	0	
71023007.669223	-3.65795354155404	-163.786159075583	0	0	0	0	0	0	
72023341.1137045	-3.70635289662048	-167.039777355192	0	0	0	0	0	0	
73023674.558186	-3.74660640451664	-170.353279580056	0	0	0	0	0	0	
74024008.0026675	-3.77678125852246	-173.769618528673	0	0	0	0	0	0	
75024341.4471489	-3.79511661321786	-177.33091000367	0	0	0	0	0	0	
76024674.8916304	-3.81166803270057	179.022452584332	0	0	0	0	0	0	
77025008.3361119	-3.81511505184736	175.338788204583	0	0	0	0	0	0	
78025341.7805934	-3.81501842602571	171.625348889035	0	0	0	0	0	0	
79025675.2250749	-3.79276274903665	167.872070965182	0	0	0	0	0	0	
80026008.6695564	-3.7603707647913	164.001299710767	0	0	0	0	0	0	
81026342.1140379	-3.73204714624558	160.055244013668	0	0	0	0	0	0	
82026675.5585194	-3.70170615225015	156.144692386703	0	0	0	0	0	0	
83027009.0030009	-3.66581120376666	152.270497025454	0	0	0	0	0	0	
84027342.4474824	-3.62189557469054	148.345252459029	0	0	0	0	0	0	
85027675.8919639	-3.58362038611862	144.326198953866	0	0	0	0	0	0	
86028009.3364454	-3.56126483850504	140.238673216719	0	0	0	0	0	0	
87028342.7809269	-3.55704822892225	136.124994121817	0	0	0	0	0	0	
88028676.2254083	-3.57632566395597	132.072179212356	0	0	0	0	0	0	
89029009.6698898	-3.5848491591703	128.008268627882	0	0	0	0	0	0	
90029343.1143713	-3.60561881702244	123.723022932262	0	0	0	0	0	0	
91029676.5588528	-3.66155020555292	119.322609983692	0	0	0	0	0	0	
92030010.0033343	-3.743049705593	114.870088307851	0	0	0	0	0	0	
93030343.4478158	-3.84784075486745	110.386262888807	0	0	0	0	0	0	
94030676.8922973	-3.95333288706604	105.821622779572	0	0	0	0	0	0	
95031010.3367788	-4.05548368330757	100.968946221772	0	0	0	0	0	0	
96031343.7812603	-4.1830629122841	95.8018496119959	0	0	0	0	0	0	
97031677.2257418	-4.34464851267166	90.4842659985699	0	0	0	0	0	0	
98032010.6702233	-4.52873097032428	85.0612040678436	0	0	0	0	0	0	
99032344.1147048	-4.71251777422793	79.4828898511942	0	0	0	0	0	0	
100032677.559186	-4.90182054999927	73.7506429695419	0	0	0	0	0	0	
101033011.003668	-5.08910410777624	67.9646823015207	0	0	0	0	0	0	
102033344.448149	-5.28156726020954	62.0380104391248	0	0	0	0	0	0	
103033677.892631	-5.44766488297385	56.0688782736843	0	0	0	0	0	0	
104034011.337112	-5.58696764271892	49.9424247566947	0	0	0	0	0	0	
105034344.781594	-5.72606888110741	43.4918543141067	0	0	0	0	0	0	
106034678.226075	-5.90019808989022	36.9958905366157	0	0	0	0	0	0	
107035011.670557	-6.10893105517779	30.8185007818629	0	0	0	0	0	0	
108035345.115038	-6.27744310901406	25.0336877006251	0	0	0	0	0	0	
109035678.55952	-6.40182330719312	19.3012629064739	0	0	0	0	0	0	
110036012.004001	-6.52498121183894	13.5169215763698	0	0	0	0	0	0	
111036345.448483	-6.63925657407721	7.7808890366538	0	0	0	0	0	0	
112036678.892964	-6.76700540767907	1.88644515794951	0	0	0	0	0	0	
113037012.337446	-6.94647604393984	-3.84612051723206	0	0	0	0	0	0	
114037345.781927	-7.17615051784089	-9.50621113734996	0	0	0	0	0	0	
115037679.226409	-7.44098260948565	-14.7184142751895	0	0	0	0	0	0	
116038012.67089	-7.68458871359145	-19.614953533947	0	0	0	0	0	0	
117038346.115372	-7.90486698607543	-24.4065160176837	0	0	0	0	0	0	
118038679.559853	-8.09615338600635	-29.2611713762567	0	0	0	0	0	0	
119039013.004335	-8.27815428894023	-34.3809865860747	0	0	0	0	0	0	
120039346.448816	-8.48635595506714	-39.5585735486761	0	0	0	0	0	0	
121039679.893298	-8.67371653602522	-44.8090910857075	0	0	0	0	0	0	
122040013.337779	-8.84703174486286	-50.3130585494902	0	0	0	0	0	0	
123040346.782261	-9.042771329451	-56.0352606408699	0	0	0	0	0	0	
124040680.226742	-9.26590844960998	-61.5436833089581	0	0	0	0	0	0	
125041013.671224	-9.48382525654112	-66.4489879061168	0	0	0	0	0	0	
126041347.115705	-9.53805827667983	-71.0063156897419	0	0	0	0	0	0	
127041680.560187	-9.48837652232044	-76.1643344502848	0	0	0	0	0	0	
128042014.004668	-9.44312229674002	-81.790833846199	0	0	0	0	0	0	
129042347.44915	-9.44743837073276	-87.4299324678933	0	0	0	0	0	0	
130042680.893631	-9.47451120038363	-92.5320236347359	0	0	0	0	0	0	
131043014.338113	-9.47822184869722	-97.13254227742	0	0	0	0	0	0	
132043347.782594	-9.42986822014895	-101.347781412323	0	0	0	0	0	0	
133043681.227075	-9.34520081801184	-105.196260035515	0	0	0	0	0	0	
134044014.671557	-9.21402680491933	-108.966996086096	0	0	0	0	0	0	
135044348.116038	-9.06227859850006	-112.656635081624	0	0	0	0	0	0	
136044681.56052	-8.89652681936465	-116.450189890312	0	0	0	0	0	0	
137045015.005001	-8.77571946320368	-120.459472868961	0	0	0	0	0	0	
138045348.449483	-8.73233815797278	-124.213802983843	0	0	0	0	0	0	
139045681.893964	-8.71404154673055	-127.554939075937	0	0	0	0	0	0	
140046015.338446	-8.69627668242008	-130.845160901293	0	0	0	0	0	0	
141046348.782927	-8.73400430654226	-133.637508456183	0	0	0	0	0	0	
142046682.227409	-8.69810228947487	-136.473917210443	0	0	0	0	0	0	
143047015.67189	-8.67401920327039	-139.432742109352	0	0	0	0	0	0	
144047349.116372	-8.65739958626832	-142.543634019431	0	0	0	0	0	0	
145047682.560853	-8.66703514518198	-145.869017167989	0	0	0	0	0	0	
146048016.005335	-8.70321334652153	-149.218613028568	0	0	0	0	0	0	
147048349.449816	-8.77816853754828	-152.627839131429	0	0	0	0	0	0	
148048682.894298	-8.86449758049828	-155.892556577338	0	0	0	0	0	0	
149049016.338779	-8.96717327159748	-158.98273506606	0	0	0	0	0	0	
150049349.783261	-9.02734717517006	-161.666415731373	0	0	0	0	0	0	
151049683.227742	-8.95206503275473	-164.588230591327	0	0	0	0	0	0	
152050016.672224	-8.89776336786346	-168.151358262157	0	0	0	0	0	0	
153050350.116705	-8.85858849590885	-171.913311297982	0	0	0	0	0	0	
154050683.561187	-8.84228064677012	-175.643080235201	0	0	0	0	0	0	
155051017.005668	-8.85024990860842	-179.229730908967	0	0	0	0	0	0	
156051350.45015	-8.83556819153395	177.428474555496	0	0	0	0	0	0	
157051683.894631	-8.8115704605924	174.461634624759	0	0	0	0	0	0	
158052017.339113	-8.73644452184603	171.642898151163	0	0	0	0	0	0	
159052350.783594	-8.62125555809321	168.876614175819	0	0	0	0	0	0	
160052684.228076	-8.48431485962263	166.139891107869	0	0	0	0	0	0	
161053017.672557	-8.34835967058287	163.276000377318	0	0	0	0	0	0	
162053351.117039	-8.24101033809534	160.455974757688	0	0	0	0	0	0	
163053684.56152	-8.16993746863303	157.839603828316	0	0	0	0	0	0	
164054018.006002	-8.11506399611611	155.605046371376	0	0	0	0	0	0	
165054351.450483	-8.03282289112605	153.700907762624	0	0	0	0	0	0	
166054684.894965	-7.91162428643653	151.858251827119	0	0	0	0	0	0	
167055018.339446	-7.78906729434797	149.876597061901	0	0	0	0	0	0	
168055351.783928	-7.65462174371711	147.723388918204	0	0	0	0	0	0	
169055685.228409	-7.5593254655747	145.224406819741	0	0	0	0	0	0	
170056018.672891	-7.57831443934361	142.761804465784	0	0	0	0	0	0	
171056352.117372	-7.60025587334107	140.85862076964	0	0	0	0	0	0	
172056685.561854	-7.60314332354581	139.009566459784	0	0	0	0	0	0	
173057019.006335	-7.62059848984206	137.092632449701	0	0	0	0	0	0	
174057352.450817	-7.62518176165669	135.256872133725	0	0	0	0	0	0	
175057685.895298	-7.62427593438152	133.28039391736	0	0	0	0	0	0	
176058019.33978	-7.62140206049137	131.113948879234	0	0	0	0	0	0	
177058352.784261	-7.64115121351615	128.720765352951	0	0	0	0	0	0	
178058686.228743	-7.65853749264329	126.482901911073	0	0	0	0	0	0	
179059019.673224	-7.67471852612656	123.957121548605	0	0	0	0	0	0	
180059353.117706	-7.70840230335255	121.309040533183	0	0	0	0	0	0	
181059686.562187	-7.75310977102455	118.741178079619	0	0	0	0	0	0	
182060020.006669	-7.76923750703223	116.074284240687	0	0	0	0	0	0	
183060353.45115	-7.79122476583743	113.41740144997	0	0	0	0	0	0	
184060686.895632	-7.78645321114778	110.774256447508	0	0	0	0	0	0	
185061020.340113	-7.75907612845965	108.005136350827	0	0	0	0	0	0	
186061353.784595	-7.74075773910593	105.061448203337	0	0	0	0	0	0	
187061687.229076	-7.73008473205631	102.11916562754	0	0	0	0	0	0	
188062020.673558	-7.74113574924305	99.3667930130864	0	0	0	0	0	0	
189062354.118039	-7.74605913562832	96.9807451080008	0	0	0	0	0	0	
190062687.562521	-7.70312551867952	94.5197201552757	0	0	0	0	0	0	
191063021.007002	-7.68708323513604	92.4406953382488	0	0	0	0	0	0	
192063354.451484	-7.5895132813072	90.270906599196	0	0	0	0	0	0	
193063687.895965	-7.52173816690533	88.2367078553286	0	0	0	0	0	0	
194064021.340447	-7.4221990046403	86.1369295146032	0	0	0	0	0	0	
195064354.784928	-7.34623934768451	83.9321524301979	0	0	0	0	0	0	
196064688.229409	-7.29405783433386	81.7761474120227	0	0	0	0	0	0	
197065021.673891	-7.2722970610781	79.840853290504	0	0	0	0	0	0	
198065355.118372	-7.25984448366679	78.0120418978214	0	0	0	0	0	0	
199065688.562854	-7.25832459810618	76.4120235457898	0	0	0	0	0	0	
200066022.007335	-7.22034559562205	74.8442065601502	0	0	0	0	0	0	
201066355.451817	-7.19789840736473	72.9758240338253	0	0	0	0	0	0	
202066688.896298	-7.21602049165627	71.1456760191892	0	0	0	0	0	0	
203067022.34078	-7.24617447941077	69.3251110715076	0	0	0	0	0	0	
204067355.785261	-7.30946561468037	67.5224386810158	0	0	0	0	0	0	
205067689.229743	-7.3864063869605	65.7728042334179	0	0	0	0	0	0	
206068022.674224	-7.4647480054476	64.150960810142	0	0	0	0	0	0	
207068356.118706	-7.52524375963753	62.4561955227414	0	0	0	0	0	0	
208068689.563187	-7.59509973370572	60.6663926889796	0	0	0	0	0	0	
209069023.007669	-7.64468217026611	58.7227571618156	0	0	0	0	0	0	
210069356.45215	-7.71277732073117	56.5963440201292	0	0	0	0	0	0	
211069689.896632	-7.80380420026887	54.4268233902547	0	0	0	0	0	0	
212070023.341113	-7.90596563261662	52.296295310703	0	0	0	0	0	0	
213070356.785595	-7.99091178625638	50.2501102628769	0	0	0	0	0	0	
214070690.230076	-8.06686764642601	48.1821600781572	0	0	0	0	0	0	
215071023.674558	-8.12919876121445	46.1498410867264	0	0	0	0	0	0	
216071357.119039	-8.15841469179926	44.1946686498432	0	0	0	0	0	0	
217071690.563521	-8.15259727863779	42.0634993388565	0	0	0	0	0	0	
218072024.008002	-8.14176092318762	39.8488373717907	0	0	0	0	0	0	
219072357.452484	-8.13562710992518	37.6611358785696	0	0	0	0	0	0	
220072690.896965	-8.11635275203438	35.5101422245725	0	0	0	0	0	0	
221073024.341447	-8.10094880709446	33.4854396010508	0	0	0	0	0	0	
222073357.785928	-8.05878948026744	31.6155234361756	0	0	0	0	0	0	
223073691.23041	-8.00610481484379	29.7850268996757	0	0	0	0	0	0	
224074024.674891	-7.93903242099608	28.0218012515331	0	0	0	0	0	0	
225074358.119373	-7.85998288835471	26.2737016061304	0	0	0	0	0	0	
226074691.563854	-7.78961096153258	24.3976001156209	0	0	0	0	0	0	
227075025.008336	-7.74687103269171	22.6998616881773	0	0	0	0	0	0	
228075358.452817	-7.71320465003255	21.1468796335182	0	0	0	0	0	0	
229075691.897299	-7.67344180102613	19.7570855884238	0	0	0	0	0	0	
230076025.34178	-7.62254369157352	18.4592231305007	0	0	0	0	0	0	
231076358.786262	-7.5786914281436	17.0861660231448	0	0	0	0	0	0	
232076692.230743	-7.53147543376048	15.7415385695579	0	0	0	0	0	0	
233077025.675225	-7.49185597154567	14.134170715807	0	0	0	0	0	0	
234077359.119706	-7.50328500702538	12.626077508373	0	0	0	0	0	0	
235077692.564188	-7.51866525851959	11.1263817508204	0	0	0	0	0	0	
236078026.008669	-7.55360245445963	9.61316156594561	0	0	0	0	0	0	
237078359.453151	-7.5904905553732	8.10063289473854	0	0	0	0	0	0	
238078692.897632	-7.63736054683058	6.59106931903135	0	0	0	0	0	0	
239079026.342114	-7.68290866230004	4.99144256827507	0	0	0	0	0	0	
240079359.786595	-7.73316910211626	3.38573280215968	0	0	0	0	0	0	
241079693.231077	-7.76804836535898	1.56120867332977	0	0	0	0	0	0	
242080026.675558	-7.82044319466789	-0.372894534054192	0	0	0	0	0	0	
243080360.12004	-7.86395498819086	-2.40365424992385	0	0	0	0	0	0	
244080693.564521	-7.92585347898383	-4.53602388961483	0	0	0	0	0	0	
245081027.009003	-7.9827396825828	-6.62415169637262	0	0	0	0	0	0	
246081360.453484	-8.01816645560619	-8.76777410456329	0	0	0	0	0	0	
247081693.897966	-8.03466031710555	-11.0034011651837	0	0	0	0	0	0	
248082027.342447	-8.0400030754066	-13.303923822987	0	0	0	0	0	0	
249082360.786929	-8.03063376898531	-15.7606322226315	0	0	0	0	0	0	
250082694.23141	-8.02340876571882	-18.2191948691127	0	0	0	0	0	0	
251083027.675892	-8.01253451789296	-20.735827663864	0	0	0	0	0	0	
252083361.120373	-7.99858751615985	-23.0801046619722	0	0	0	0	0	0	
253083694.564855	-7.96681979182321	-25.3814987471936	0	0	0	0	0	0	
254084028.009336	-7.92187403029378	-27.6750853676724	0	0	0	0	0	0	
255084361.453818	-7.89373843425665	-29.9109425369053	0	0	0	0	0	0	
256084694.898299	-7.8645905185145	-31.9679990981907	0	0	0	0	0	0	
257085028.342781	-7.81824151600004	-33.852848621955	0	0	0	0	0	0	
258085361.787262	-7.76603604146651	-35.7235161075778	0	0	0	0	0	0	
259085695.231743	-7.71736684769913	-37.5637570925063	0	0	0	0	0	0	
260086028.676225	-7.68141153738244	-39.2871728235919	0	0	0	0	0	0	
261086362.120706	-7.64396090455171	-40.895850887131	0	0	0	0	0	0	
262086695.565188	-7.59851407195584	-42.5817054710655	0	0	0	0	0	0	
263087029.009669	-7.59144647373058	-44.3800647328258	0	0	0	0	0	0	
264087362.454151	-7.61220581152243	-45.9712638795353	0	0	0	0	0	0	
265087695.898632	-7.63116374684583	-47.4818398464216	0	0	0	0	0	0	
266088029.343114	-7.67441186194261	-49.0390409194053	0	0	0	0	0	0	
267088362.787595	-7.72896181613549	-50.4917249380179	0	0	0	0	0	0	
268088696.232077	-7.77701883080143	-51.889556749574	0	0	0	0	0	0	
269089029.676558	-7.80461032447099	-53.4506900588034	0	0	0	0	0	0	
270089363.12104	-7.87350161325986	-55.4204422224941	0	0	0	0	0	0	
271089696.565521	-7.99809714149906	-57.2783002026089	0	0	0	0	0	0	
272090030.010003	-8.13508882017883	-58.9444269562867	0	0	0	0	0	0	
273090363.454484	-8.2552081234235	-60.4673318928665	0	0	0	0	0	0	
274090696.898966	-8.33778560891766	-62.1142660521355	0	0	0	0	0	0	
275091030.343447	-8.41642758806551	-64.0038388564346	0	0	0	0	0	0	
276091363.787929	-8.4946631430878	-66.0822185293559	0	0	0	0	0	0	
277091697.23241	-8.58578080810692	-68.2867950000718	0	0	0	0	0	0	
278092030.676892	-8.69151843862222	-70.484031572042	0	0	0	0	0	0	
279092364.121373	-8.78623212438521	-72.6023799999318	0	0	0	0	0	0	
280092697.565855	-8.86442166357804	-74.6532559713846	0	0	0	0	0	0	
281093031.010336	-8.89938040100705	-76.7166835792028	0	0	0	0	0	0	
282093364.454818	-8.90813326052273	-78.8608798102731	0	0	0	0	0	0	
283093697.899299	-8.89744607808625	-81.1227709838695	0	0	0	0	0	0	
284094031.343781	-8.86674571046559	-83.4819423785182	0	0	0	0	0	0	
285094364.788262	-8.864717682899	-85.9194083015238	0	0	0	0	0	0	
286094698.232744	-8.87286380409603	-88.2206227411185	0	0	0	0	0	0	
287095031.677225	-8.87886445782619	-90.2429288781738	0	0	0	0	0	0	
288095365.121707	-8.86063522222785	-92.0593871387137	0	0	0	0	0	0	
289095698.566188	-8.82556540523637	-93.7508948402087	0	0	0	0	0	0	
290096032.01067	-8.7558720564618	-95.4647983385556	0	0	0	0	0	0	
291096365.455151	-8.70346815912977	-97.3490545164435	0	0	0	0	0	0	
292096698.899633	-8.67926757215468	-99.0990895290954	0	0	0	0	0	0	
293097032.344114	-8.66645241948922	-100.72845321719	0	0	0	0	0	0	
294097365.788596	-8.67200671529881	-102.180901869932	0	0	0	0	0	0	
295097699.233077	-8.68658028215641	-103.46707188093	0	0	0	0	0	0	
296098032.677559	-8.67440303750589	-104.64998253744	0	0	0	0	0	0	
297098366.12204	-8.67440343733952	-106.130636101739	0	0	0	0	0	0	
