!Keysight Technologies N9923A: A.08.09
!Date: Thursday, 02 August 2018 08:33:08
!Timezone: (GMT+08:00) Kuala Lumpur, Singapore
!Model: N9923A
!Serial: MY52412143
!GPS Latitude: 
!GPS Longitude: 
!GPS TimeStamp: 0001-01-01 00:00:00Z
!GPS Seconds Since Last Read: 0
!CHECKSUM:0505920574
!Correction: S11(ON U)S21()S12()S22()
!S2P File: Measurements:S11,S21,S12,S22:
# Hz S DB R 50
2000000	-4.24333466873339	24.8198352966455	0	0	0	0	0	0	
3000333.44448149	-3.93105237301201	14.0199354534576	0	0	0	0	0	0	
4000666.88896299	-3.80583976504673	7.2018235782627	0	0	0	0	0	0	
5001000.33344448	-3.74167946112046	2.20917480713994	0	0	0	0	0	0	
6001333.77792598	-3.71698116561353	-1.85250135631411	0	0	0	0	0	0	
7001667.22240747	-3.70170396950293	-5.32228181593955	0	0	0	0	0	0	
8002000.66688896	-3.69753310204471	-8.49000460350141	0	0	0	0	0	0	
9002334.11137046	-3.69762151775344	-11.4031617179227	0	0	0	0	0	0	
10002667.555852	-3.70099743947937	-14.1952334234598	0	0	0	0	0	0	
11003001.0003334	-3.70663458451659	-16.8202057914582	0	0	0	0	0	0	
12003334.4448149	-3.71149889981698	-19.3879773818606	0	0	0	0	0	0	
13003667.8892964	-3.71563053604171	-21.8970623860627	0	0	0	0	0	0	
14004001.3337779	-3.71985433440176	-24.3477500610263	0	0	0	0	0	0	
15004334.7782594	-3.7192016319118	-26.7519805345982	0	0	0	0	0	0	
16004668.2227409	-3.72320136116305	-29.1199778970837	0	0	0	0	0	0	
17005001.6672224	-3.72323000581246	-31.439387880302	0	0	0	0	0	0	
18005335.1117039	-3.72168105128512	-33.7396766969044	0	0	0	0	0	0	
19005668.5561854	-3.71771366703098	-36.0500414315951	0	0	0	0	0	0	
20006002.0006669	-3.7119812355466	-38.3332590332293	0	0	0	0	0	0	
21006335.4451484	-3.70815454699762	-40.6026690892734	0	0	0	0	0	0	
22006668.8896299	-3.69784891082202	-42.8598338047837	0	0	0	0	0	0	
23007002.3341114	-3.68599768586571	-45.0961706873573	0	0	0	0	0	0	
24007335.7785929	-3.67813419872722	-47.3467057220695	0	0	0	0	0	0	
25007669.2230743	-3.67161821207704	-49.5563974078685	0	0	0	0	0	0	
26008002.6675558	-3.66072741987133	-51.7720722482897	0	0	0	0	0	0	
27008336.1120373	-3.64846780728719	-53.9915627949453	0	0	0	0	0	0	
28008669.5565188	-3.63925939469393	-56.1932441611429	0	0	0	0	0	0	
29009003.0010003	-3.62769130813298	-58.3813253335974	0	0	0	0	0	0	
30009336.4454818	-3.62316048116839	-60.5627258789386	0	0	0	0	0	0	
31009669.8899633	-3.61788810215278	-62.7909272772999	0	0	0	0	0	0	
32010003.3344448	-3.61215219519525	-64.9966075977533	0	0	0	0	0	0	
33010336.7789263	-3.60897217476901	-67.198200461836	0	0	0	0	0	0	
34010670.2234078	-3.60777547483175	-69.4084832786759	0	0	0	0	0	0	
35011003.6678893	-3.60843463880199	-71.6977028233947	0	0	0	0	0	0	
36011337.1123708	-3.61009142569338	-73.9360896905349	0	0	0	0	0	0	
37011670.5568523	-3.60981948528203	-76.1808498337837	0	0	0	0	0	0	
38012004.0013337	-3.61377455272498	-78.4705016802461	0	0	0	0	0	0	
39012337.4458152	-3.61595247077189	-80.8006662177871	0	0	0	0	0	0	
40012670.8902967	-3.61447785547978	-83.1353031222085	0	0	0	0	0	0	
41013004.3347782	-3.61441546352871	-85.4674930612015	0	0	0	0	0	0	
42013337.7792597	-3.61414186290812	-87.8097363404031	0	0	0	0	0	0	
43013671.2237412	-3.60940954144444	-90.1914257790483	0	0	0	0	0	0	
44014004.6682227	-3.61086928174805	-92.5578149942217	0	0	0	0	0	0	
45014338.1127042	-3.60763294271685	-94.9465191050399	0	0	0	0	0	0	
46014671.5571857	-3.59881801788691	-97.3691093030132	0	0	0	0	0	0	
47015005.0016672	-3.5966324360366	-99.8115879635378	0	0	0	0	0	0	
48015338.4461487	-3.58906477395348	-102.24602128553	0	0	0	0	0	0	
49015671.8906302	-3.58099938103452	-104.724297707558	0	0	0	0	0	0	
50016005.3351116	-3.56990994874346	-107.205392707919	0	0	0	0	0	0	
51016338.7795931	-3.55711158637598	-109.703509717987	0	0	0	0	0	0	
52016672.2240746	-3.54493055912159	-112.213506362313	0	0	0	0	0	0	
53017005.6685561	-3.53219982466374	-114.737096775313	0	0	0	0	0	0	
54017339.1130376	-3.52169693169388	-117.304926179027	0	0	0	0	0	0	
55017672.5575191	-3.50750360371901	-119.874662220573	0	0	0	0	0	0	
56018006.0020006	-3.49211742865819	-122.455017170029	0	0	0	0	0	0	
57018339.4464821	-3.48011399305749	-125.040568828865	0	0	0	0	0	0	
58018672.8909636	-3.46423765327951	-127.673055816787	0	0	0	0	0	0	
59019006.3354451	-3.45443326765459	-130.30379796104	0	0	0	0	0	0	
60019339.7799266	-3.4445418717934	-132.977148658983	0	0	0	0	0	0	
61019673.2244081	-3.43447469441547	-135.666561980685	0	0	0	0	0	0	
62020006.6688896	-3.42429102583829	-138.388306185581	0	0	0	0	0	0	
63020340.113371	-3.42448918960831	-141.141395571877	0	0	0	0	0	0	
64020673.5578525	-3.41907397304021	-143.929632998865	0	0	0	0	0	0	
65021007.002334	-3.42082714595255	-146.777061752951	0	0	0	0	0	0	
66021340.4468155	-3.42092413594983	-149.647477284031	0	0	0	0	0	0	
67021673.891297	-3.42238221471253	-152.563527085481	0	0	0	0	0	0	
68022007.3357785	-3.42899575506144	-155.535868483021	0	0	0	0	0	0	
69022340.78026	-3.43419996679612	-158.543260721896	0	0	0	0	0	0	
70022674.2247415	-3.43955501252018	-161.618195200126	0	0	0	0	0	0	
71023007.669223	-3.44053823613942	-164.747863393014	0	0	0	0	0	0	
72023341.1137045	-3.44495702331084	-167.927232829268	0	0	0	0	0	0	
73023674.558186	-3.44789449411347	-171.179340368706	0	0	0	0	0	0	
74024008.0026675	-3.45335686990155	-174.510316100529	0	0	0	0	0	0	
75024341.4471489	-3.45630836486878	-177.848311675054	0	0	0	0	0	0	
76024674.8916304	-3.45836358682781	178.712050071071	0	0	0	0	0	0	
77025008.3361119	-3.46009789877611	175.215049002465	0	0	0	0	0	0	
78025341.7805934	-3.46671441737369	171.670178613673	0	0	0	0	0	0	
79025675.2250749	-3.4703067144141	168.065573945809	0	0	0	0	0	0	
80026008.6695564	-3.46905951162957	164.410998507389	0	0	0	0	0	0	
81026342.1140379	-3.47098996083259	160.654392134751	0	0	0	0	0	0	
82026675.5585194	-3.47707863830126	156.814874338671	0	0	0	0	0	0	
83027009.0030009	-3.48514026433214	152.926168136755	0	0	0	0	0	0	
84027342.4474824	-3.49128493844984	148.937885742832	0	0	0	0	0	0	
85027675.8919639	-3.50787151502782	144.891626386432	0	0	0	0	0	0	
86028009.3364454	-3.52863410078615	140.720987730139	0	0	0	0	0	0	
87028342.7809269	-3.55828745624842	136.449612379401	0	0	0	0	0	0	
88028676.2254083	-3.60141166614094	132.09077487306	0	0	0	0	0	0	
89029009.6698898	-3.65622842738487	127.649202467996	0	0	0	0	0	0	
90029343.1143713	-3.72550182390902	123.159500967564	0	0	0	0	0	0	
91029676.5588528	-3.80748303031421	118.56223513326	0	0	0	0	0	0	
92030010.0033343	-3.89548515253691	113.873208023691	0	0	0	0	0	0	
93030343.4478158	-4.00628977912858	109.089776991473	0	0	0	0	0	0	
94030676.8922973	-4.12497482989607	104.286870202937	0	0	0	0	0	0	
95031010.3367788	-4.25547392485936	99.3352634122947	0	0	0	0	0	0	
96031343.7812603	-4.39935733706203	94.3896632001056	0	0	0	0	0	0	
97031677.2257418	-4.54373259966279	89.3731100859144	0	0	0	0	0	0	
98032010.6702233	-4.69632496148291	84.3312605470124	0	0	0	0	0	0	
99032344.1147048	-4.85284074510323	79.2117618696777	0	0	0	0	0	0	
100032677.559186	-5.00344939655989	74.1094339407473	0	0	0	0	0	0	
101033011.003668	-5.13914977289131	68.9083313169787	0	0	0	0	0	0	
102033344.448149	-5.25812817050293	63.5743025453036	0	0	0	0	0	0	
103033677.892631	-5.38906045273085	58.0297040174198	0	0	0	0	0	0	
104034011.337112	-5.51250436060523	52.4067286455619	0	0	0	0	0	0	
105034344.781594	-5.63606442630556	46.6840600206932	0	0	0	0	0	0	
106034678.226075	-5.74969069232635	40.7457169565516	0	0	0	0	0	0	
107035011.670557	-5.88736561447925	34.6669784972279	0	0	0	0	0	0	
108035345.115038	-6.0262448807129	28.4873518887331	0	0	0	0	0	0	
109035678.55952	-6.19408215438946	22.3217393490765	0	0	0	0	0	0	
110036012.004001	-6.35520242332577	16.222101268148	0	0	0	0	0	0	
111036345.448483	-6.52473863994414	9.98816184873734	0	0	0	0	0	0	
112036678.892964	-6.7071439935869	4.02261059229463	0	0	0	0	0	0	
113037012.337446	-6.87977632140324	-2.12752995952907	0	0	0	0	0	0	
114037345.781927	-7.08343752167778	-8.1974834862384	0	0	0	0	0	0	
115037679.226409	-7.27765401133991	-14.0961542449715	0	0	0	0	0	0	
116038012.67089	-7.47329623980413	-20.0418073568365	0	0	0	0	0	0	
117038346.115372	-7.68817211495445	-25.781492478198	0	0	0	0	0	0	
118038679.559853	-7.88672186899023	-31.414091090778	0	0	0	0	0	0	
119039013.004335	-8.06904818734275	-36.8919941674815	0	0	0	0	0	0	
120039346.448816	-8.2265685021492	-42.2671986158175	0	0	0	0	0	0	
121039679.893298	-8.36688448770692	-47.7399202762077	0	0	0	0	0	0	
122040013.337779	-8.5039570929245	-52.9947410186284	0	0	0	0	0	0	
123040346.782261	-8.61078881565271	-58.3171569258167	0	0	0	0	0	0	
124040680.226742	-8.71263023404002	-63.5425435979606	0	0	0	0	0	0	
125041013.671224	-8.80269922749508	-68.7868653914021	0	0	0	0	0	0	
126041347.115705	-8.90770154672685	-73.9402929391802	0	0	0	0	0	0	
127041680.560187	-8.99897298004486	-78.7103782068044	0	0	0	0	0	0	
128042014.004668	-9.04295308999271	-83.4794996518315	0	0	0	0	0	0	
129042347.44915	-9.09176770187369	-88.1814950846958	0	0	0	0	0	0	
130042680.893631	-9.14325377534154	-92.7872846153848	0	0	0	0	0	0	
131043014.338113	-9.18247893945868	-97.0768212531677	0	0	0	0	0	0	
132043347.782594	-9.17816710710927	-101.092494494096	0	0	0	0	0	0	
133043681.227075	-9.14500477635526	-105.23395706582	0	0	0	0	0	0	
134044014.671557	-9.11192475808014	-109.367049438887	0	0	0	0	0	0	
135044348.116038	-9.08517232376201	-113.425975193133	0	0	0	0	0	0	
136044681.56052	-9.06365873209061	-117.388043654016	0	0	0	0	0	0	
137045015.005001	-9.03451745817554	-121.151485089013	0	0	0	0	0	0	
138045348.449483	-9.00152498427529	-124.988473968786	0	0	0	0	0	0	
139045681.893964	-9.00949930755587	-128.58653666127	0	0	0	0	0	0	
140046015.338446	-8.99366430022539	-132.040453565959	0	0	0	0	0	0	
141046348.782927	-8.96569613004556	-135.464640982372	0	0	0	0	0	0	
142046682.227409	-8.96580796231093	-138.894102800883	0	0	0	0	0	0	
143047015.67189	-8.9696178493891	-142.047049870535	0	0	0	0	0	0	
144047349.116372	-8.95141732999805	-145.185522254286	0	0	0	0	0	0	
145047682.560853	-8.94284060518493	-148.192044499959	0	0	0	0	0	0	
146048016.005335	-8.90500321728863	-151.135113402254	0	0	0	0	0	0	
147048349.449816	-8.870351540489	-154.124346039564	0	0	0	0	0	0	
148048682.894298	-8.82570870296091	-157.09446801709	0	0	0	0	0	0	
149049016.338779	-8.79190227111408	-160.099202815751	0	0	0	0	0	0	
150049349.783261	-8.73671193644959	-162.838764085677	0	0	0	0	0	0	
151049683.227742	-8.67182647033841	-165.903950628571	0	0	0	0	0	0	
152050016.672224	-8.62167307481086	-168.839603676109	0	0	0	0	0	0	
153050350.116705	-8.5636717750576	-171.707853630458	0	0	0	0	0	0	
154050683.561187	-8.50112782885266	-174.595099965626	0	0	0	0	0	0	
155051017.005668	-8.44405835294117	-177.387975002335	0	0	0	0	0	0	
156051350.45015	-8.35863642341181	179.737975153906	0	0	0	0	0	0	
157051683.894631	-8.29975154277771	176.902675690623	0	0	0	0	0	0	
158052017.339113	-8.23007442539822	174.19677573291	0	0	0	0	0	0	
159052350.783594	-8.15471424449669	171.437132310565	0	0	0	0	0	0	
160052684.228076	-8.07555054737875	168.688759712314	0	0	0	0	0	0	
161053017.672557	-7.99997197457427	165.995241422595	0	0	0	0	0	0	
162053351.117039	-7.92922725115031	163.249030103592	0	0	0	0	0	0	
163053684.56152	-7.87384097990597	160.669879662334	0	0	0	0	0	0	
164054018.006002	-7.80766465126933	158.086631756665	0	0	0	0	0	0	
165054351.450483	-7.7298502558303	155.543265426893	0	0	0	0	0	0	
166054684.894965	-7.66688986922036	152.869486895323	0	0	0	0	0	0	
167055018.339446	-7.60863755577505	150.33197283589	0	0	0	0	0	0	
168055351.783928	-7.55211643451223	147.674844026308	0	0	0	0	0	0	
169055685.228409	-7.51652104395761	145.052943161012	0	0	0	0	0	0	
170056018.672891	-7.49882168685342	142.428562951486	0	0	0	0	0	0	
171056352.117372	-7.49721460660361	140.003380618807	0	0	0	0	0	0	
172056685.561854	-7.46877489682304	137.684588876651	0	0	0	0	0	0	
173057019.006335	-7.43481107116475	135.195144675633	0	0	0	0	0	0	
174057352.450817	-7.4162467760578	132.656650002957	0	0	0	0	0	0	
175057685.895298	-7.40190002337242	130.196473219638	0	0	0	0	0	0	
176058019.33978	-7.39493248802466	127.650510969271	0	0	0	0	0	0	
177058352.784261	-7.39396569947006	125.272179579353	0	0	0	0	0	0	
178058686.228743	-7.38227746811437	122.741574831914	0	0	0	0	0	0	
179059019.673224	-7.37825069943282	120.234948156168	0	0	0	0	0	0	
180059353.117706	-7.39128447067368	117.676077931652	0	0	0	0	0	0	
181059686.562187	-7.40813832534189	115.215710179357	0	0	0	0	0	0	
182060020.006669	-7.41768615303033	112.743814341874	0	0	0	0	0	0	
183060353.45115	-7.44125935651425	110.342296536506	0	0	0	0	0	0	
184060686.895632	-7.45776551254771	107.968358264354	0	0	0	0	0	0	
185061020.340113	-7.46677326765254	105.569687883528	0	0	0	0	0	0	
186061353.784595	-7.49938333896865	103.204536480723	0	0	0	0	0	0	
187061687.229076	-7.52034310177321	100.953858970095	0	0	0	0	0	0	
188062020.673558	-7.53304213301066	98.7161827617716	0	0	0	0	0	0	
189062354.118039	-7.56600882581874	96.4738002096322	0	0	0	0	0	0	
190062687.562521	-7.58262325544896	94.4733723479044	0	0	0	0	0	0	
191063021.007002	-7.56706358719323	92.4558911101978	0	0	0	0	0	0	
192063354.451484	-7.55178910515011	90.2751566993855	0	0	0	0	0	0	
193063687.895965	-7.57025800135764	88.072017673973	0	0	0	0	0	0	
194064021.340447	-7.57551889354287	86.1192240071325	0	0	0	0	0	0	
195064354.784928	-7.57334155767599	84.0778217727088	0	0	0	0	0	0	
196064688.229409	-7.58175357283535	82.0414723489499	0	0	0	0	0	0	
197065021.673891	-7.5889507474392	80.0670053959822	0	0	0	0	0	0	
198065355.118372	-7.60672767567729	78.1096815240138	0	0	0	0	0	0	
199065688.562854	-7.63089210409339	76.2375269724199	0	0	0	0	0	0	
200066022.007335	-7.65649827341916	74.4470458370716	0	0	0	0	0	0	
201066355.451817	-7.68088234610944	72.6042624899314	0	0	0	0	0	0	
202066688.896298	-7.7075878124233	70.7978791103699	0	0	0	0	0	0	
203067022.34078	-7.7345319662718	69.1112046248046	0	0	0	0	0	0	
204067355.785261	-7.7597047282201	67.3235461965712	0	0	0	0	0	0	
205067689.229743	-7.78169937754682	65.6280633005272	0	0	0	0	0	0	
206068022.674224	-7.8077377046917	63.8589918777471	0	0	0	0	0	0	
207068356.118706	-7.8443346448631	62.1864253630505	0	0	0	0	0	0	
208068689.563187	-7.84918617177893	60.5576599423379	0	0	0	0	0	0	
209069023.007669	-7.8585497628371	58.7714911772537	0	0	0	0	0	0	
210069356.45215	-7.87308458005673	57.0192770470697	0	0	0	0	0	0	
211069689.896632	-7.89617303313968	55.2758871525609	0	0	0	0	0	0	
212070023.341113	-7.90817864967496	53.6327059181534	0	0	0	0	0	0	
213070356.785595	-7.90393407371295	51.902068402635	0	0	0	0	0	0	
214070690.230076	-7.88826239188552	50.1373895689552	0	0	0	0	0	0	
215071023.674558	-7.88682567328542	48.3317111364164	0	0	0	0	0	0	
216071357.119039	-7.87396676130389	46.5988881794311	0	0	0	0	0	0	
217071690.563521	-7.84836505829199	44.7986719928822	0	0	0	0	0	0	
218072024.008002	-7.81741366925179	42.9472466043802	0	0	0	0	0	0	
219072357.452484	-7.79553762938922	41.0175812318819	0	0	0	0	0	0	
220072690.896965	-7.7887869768588	39.1299981874072	0	0	0	0	0	0	
221073024.341447	-7.75625243876505	37.3840161802623	0	0	0	0	0	0	
222073357.785928	-7.7210139535889	35.4705593093559	0	0	0	0	0	0	
223073691.23041	-7.69328745840045	33.6411729280858	0	0	0	0	0	0	
224074024.674891	-7.65665108698765	31.7685664753757	0	0	0	0	0	0	
225074358.119373	-7.62228519439472	29.9564600892653	0	0	0	0	0	0	
226074691.563854	-7.58703419289579	28.0486110406689	0	0	0	0	0	0	
227075025.008336	-7.55883675168766	26.1904817184562	0	0	0	0	0	0	
228075358.452817	-7.51152375141432	24.3538980059079	0	0	0	0	0	0	
229075691.897299	-7.48817736544932	22.4031600729217	0	0	0	0	0	0	
230076025.34178	-7.4643274784103	20.6760105179239	0	0	0	0	0	0	
231076358.786262	-7.42518326051409	18.7885161829768	0	0	0	0	0	0	
232076692.230743	-7.40185425780411	16.8771131345195	0	0	0	0	0	0	
233077025.675225	-7.39184472210486	15.0432626275718	0	0	0	0	0	0	
234077359.119706	-7.36977712465949	13.2732002797336	0	0	0	0	0	0	
235077692.564188	-7.34946753740607	11.3338287636297	0	0	0	0	0	0	
236078026.008669	-7.34403857994685	9.42141719000946	0	0	0	0	0	0	
237078359.453151	-7.33403403369181	7.565938013919	0	0	0	0	0	0	
238078692.897632	-7.33290370307401	5.59532871656023	0	0	0	0	0	0	
239079026.342114	-7.34488580604632	3.63528809818423	0	0	0	0	0	0	
240079359.786595	-7.34341279347286	1.74198038647471	0	0	0	0	0	0	
241079693.231077	-7.3391762285233	-0.19941587108241	0	0	0	0	0	0	
242080026.675558	-7.3438391121584	-2.26603897716455	0	0	0	0	0	0	
243080360.12004	-7.3687082534899	-4.31478603290189	0	0	0	0	0	0	
244080693.564521	-7.37732841094259	-6.29414878592006	0	0	0	0	0	0	
245081027.009003	-7.38909841908716	-8.40210144296545	0	0	0	0	0	0	
246081360.453484	-7.41296199889649	-10.4719560722192	0	0	0	0	0	0	
247081693.897966	-7.43525939625098	-12.5336011726774	0	0	0	0	0	0	
248082027.342447	-7.45763373833541	-14.5013022647813	0	0	0	0	0	0	
249082360.786929	-7.47130507589624	-16.6291425906561	0	0	0	0	0	0	
250082694.23141	-7.49724675826412	-18.6937876557851	0	0	0	0	0	0	
251083027.675892	-7.5223904490782	-20.728023164702	0	0	0	0	0	0	
252083361.120373	-7.5419146713118	-22.7727901176954	0	0	0	0	0	0	
253083694.564855	-7.55550774759435	-24.7460892912185	0	0	0	0	0	0	
254084028.009336	-7.57064433107297	-26.8712527870925	0	0	0	0	0	0	
255084361.453818	-7.60017045813781	-28.8757493244053	0	0	0	0	0	0	
256084694.898299	-7.62713562118702	-30.8578081415375	0	0	0	0	0	0	
257085028.342781	-7.65328214651208	-32.7595475767401	0	0	0	0	0	0	
258085361.787262	-7.67208873751205	-34.6704175330132	0	0	0	0	0	0	
259085695.231743	-7.68081453064775	-36.5587832891086	0	0	0	0	0	0	
260086028.676225	-7.67999399118265	-38.441254628712	0	0	0	0	0	0	
261086362.120706	-7.70510562978183	-40.5511383963835	0	0	0	0	0	0	
262086695.565188	-7.75123303728467	-42.4570999434209	0	0	0	0	0	0	
263087029.009669	-7.79280837619895	-44.3394903144958	0	0	0	0	0	0	
264087362.454151	-7.83824957374299	-46.1136728376422	0	0	0	0	0	0	
265087695.898632	-7.88068711634499	-47.8926413553444	0	0	0	0	0	0	
266088029.343114	-7.91474729556152	-49.6030957272184	0	0	0	0	0	0	
267088362.787595	-7.95983137303264	-51.3646095686715	0	0	0	0	0	0	
268088696.232077	-8.00110372649274	-53.0533017896661	0	0	0	0	0	0	
269089029.676558	-8.04144312779524	-54.8127875151394	0	0	0	0	0	0	
270089363.12104	-8.07458048791981	-56.4821020761858	0	0	0	0	0	0	
271089696.565521	-8.12293439212535	-58.2503228833694	0	0	0	0	0	0	
272090030.010003	-8.1581443215616	-59.959781708621	0	0	0	0	0	0	
273090363.454484	-8.20514287583014	-61.7936306911798	0	0	0	0	0	0	
274090696.898966	-8.26026779660187	-63.426659767238	0	0	0	0	0	0	
275091030.343447	-8.29306770497093	-65.1443230701983	0	0	0	0	0	0	
276091363.787929	-8.33088743660788	-66.8298770230938	0	0	0	0	0	0	
277091697.23241	-8.35774286725533	-68.567568724182	0	0	0	0	0	0	
278092030.676892	-8.39729552431196	-70.35023120764	0	0	0	0	0	0	
279092364.121373	-8.44131477926447	-72.0679057042088	0	0	0	0	0	0	
280092697.565855	-8.4640271997569	-73.7844104060149	0	0	0	0	0	0	
281093031.010336	-8.47884490895469	-75.553111637827	0	0	0	0	0	0	
282093364.454818	-8.50762123401598	-77.3762604612981	0	0	0	0	0	0	
283093697.899299	-8.5316477981286	-79.1267474128707	0	0	0	0	0	0	
284094031.343781	-8.55013825651749	-80.9017345246034	0	0	0	0	0	0	
285094364.788262	-8.56313109437758	-82.7342636180589	0	0	0	0	0	0	
286094698.232744	-8.59774023058417	-84.4403361252258	0	0	0	0	0	0	
287095031.677225	-8.60544301858967	-86.1778677595819	0	0	0	0	0	0	
288095365.121707	-8.61897773244876	-87.8741743661959	0	0	0	0	0	0	
289095698.566188	-8.63023823388641	-89.5814292878755	0	0	0	0	0	0	
290096032.01067	-8.63210555194468	-91.2287455226111	0	0	0	0	0	0	
291096365.455151	-8.61807159445718	-92.8900368827164	0	0	0	0	0	0	
292096698.899633	-8.60930285284414	-94.6436006930985	0	0	0	0	0	0	
293097032.344114	-8.59757311756595	-96.3692277109373	0	0	0	0	0	0	
294097365.788596	-8.5974800955625	-98.1843504339844	0	0	0	0	0	0	
295097699.233077	-8.6141737079795	-99.9429966306905	0	0	0	0	0	0	
296098032.677559	-8.59470748287028	-101.47745973953	0	0	0	0	0	0	
297098366.12204	-8.58959987006601	-103.288732190179	0	0	0	0	0	0	
