!Keysight Technologies N9923A: A.08.09
!Date: Thursday, 02 August 2018 07:24:24
!Timezone: (GMT+08:00) Kuala Lumpur, Singapore
!Model: N9923A
!Serial: MY52412143
!GPS Latitude: 
!GPS Longitude: 
!GPS TimeStamp: 0001-01-01 00:00:00Z
!GPS Seconds Since Last Read: 0
!CHECKSUM:0094404006
!Correction: S11(ON U)S21()S12()S22()
!S2P File: Measurements:S11,S21,S12,S22:
# Hz S DB R 50
2000000	-4.21480756832356	22.0359478906655	0	0	0	0	0	0	
3000333.44448149	-3.95796794471932	12.1258346347804	0	0	0	0	0	0	
4000666.88896299	-3.86766004566417	5.8529240514694	0	0	0	0	0	0	
5001000.33344448	-3.83111409267181	1.23481074378576	0	0	0	0	0	0	
6001333.77792598	-3.82793546516542	-2.54504277902731	0	0	0	0	0	0	
7001667.22240747	-3.83079326911292	-5.84044034591721	0	0	0	0	0	0	
8002000.66688896	-3.84378484539604	-8.88160825819492	0	0	0	0	0	0	
9002334.11137046	-3.86165297141239	-11.7252320273321	0	0	0	0	0	0	
10002667.555852	-3.88336501690345	-14.4507499130296	0	0	0	0	0	0	
11003001.0003334	-3.90246165928581	-17.0545638877913	0	0	0	0	0	0	
12003334.4448149	-3.9215079094131	-19.6213641485094	0	0	0	0	0	0	
13003667.8892964	-3.92764543489558	-22.1071926175949	0	0	0	0	0	0	
14004001.3337779	-3.94332526907056	-24.6035564739298	0	0	0	0	0	0	
15004334.7782594	-3.93471704064628	-27.1664979298106	0	0	0	0	0	0	
16004668.2227409	-3.9491471754342	-29.4720652559139	0	0	0	0	0	0	
17005001.6672224	-3.94495044161385	-31.8703672321801	0	0	0	0	0	0	
18005335.1117039	-3.93802520152893	-34.22879837467	0	0	0	0	0	0	
19005668.5561854	-3.92430918110023	-36.6023910573903	0	0	0	0	0	0	
20006002.0006669	-3.90493121251323	-38.9102859275492	0	0	0	0	0	0	
21006335.4451484	-3.88150382435302	-41.2131567068502	0	0	0	0	0	0	
22006668.8896299	-3.85868822840315	-43.4812192052633	0	0	0	0	0	0	
23007002.3341114	-3.82841047406695	-45.7443304149647	0	0	0	0	0	0	
24007335.7785929	-3.80432914008587	-47.9568494725247	0	0	0	0	0	0	
25007669.2230743	-3.78252234405128	-50.1467277783855	0	0	0	0	0	0	
26008002.6675558	-3.75345752427197	-52.3373400215088	0	0	0	0	0	0	
27008336.1120373	-3.72815200572834	-54.5104762749139	0	0	0	0	0	0	
28008669.5565188	-3.70348785193293	-56.62343417866	0	0	0	0	0	0	
29009003.0010003	-3.68550765977267	-58.7553847663665	0	0	0	0	0	0	
30009336.4454818	-3.67060416093844	-60.852569270198	0	0	0	0	0	0	
31009669.8899633	-3.65739069888039	-62.97539291992	0	0	0	0	0	0	
32010003.3344448	-3.65561131306174	-65.1249728933654	0	0	0	0	0	0	
33010336.7789263	-3.65763442777443	-67.2573399408692	0	0	0	0	0	0	
34010670.2234078	-3.66133200965973	-69.3846806933902	0	0	0	0	0	0	
35011003.6678893	-3.66800559004598	-71.5874296373252	0	0	0	0	0	0	
36011337.1123708	-3.68322579380371	-73.7839898911907	0	0	0	0	0	0	
37011670.5568523	-3.70021527689828	-76.0196218354372	0	0	0	0	0	0	
38012004.0013337	-3.71381756938585	-78.2855235348829	0	0	0	0	0	0	
39012337.4458152	-3.72241581016868	-80.5476346272848	0	0	0	0	0	0	
40012670.8902967	-3.73953024914127	-82.9018929487738	0	0	0	0	0	0	
41013004.3347782	-3.75501537692759	-85.2905924887025	0	0	0	0	0	0	
42013337.7792597	-3.76889120483713	-87.6831769928246	0	0	0	0	0	0	
43013671.2237412	-3.77620381094357	-90.0999551089033	0	0	0	0	0	0	
44014004.6682227	-3.78283439241491	-92.5630254476941	0	0	0	0	0	0	
45014338.1127042	-3.78591467892225	-95.0577978992609	0	0	0	0	0	0	
46014671.5571857	-3.78672184794434	-97.5363442180175	0	0	0	0	0	0	
47015005.0016672	-3.77919701592948	-100.098315540777	0	0	0	0	0	0	
48015338.4461487	-3.76994920260824	-102.644261881559	0	0	0	0	0	0	
49015671.8906302	-3.75674831774095	-105.197128162958	0	0	0	0	0	0	
50016005.3351116	-3.73980645478105	-107.742473122285	0	0	0	0	0	0	
51016338.7795931	-3.72190612901472	-110.311761133509	0	0	0	0	0	0	
52016672.2240746	-3.69021298782387	-112.871773653757	0	0	0	0	0	0	
53017005.6685561	-3.66521349524326	-115.414543983733	0	0	0	0	0	0	
54017339.1130376	-3.63576067090823	-117.978151923275	0	0	0	0	0	0	
55017672.5575191	-3.60621263241983	-120.537075157115	0	0	0	0	0	0	
56018006.0020006	-3.57966193858162	-123.060460101841	0	0	0	0	0	0	
57018339.4464821	-3.55220679549618	-125.600960723712	0	0	0	0	0	0	
58018672.8909636	-3.52964902354989	-128.144834113539	0	0	0	0	0	0	
59019006.3354451	-3.50443883980733	-130.672757934397	0	0	0	0	0	0	
60019339.7799266	-3.48692165434152	-133.243024956627	0	0	0	0	0	0	
61019673.2244081	-3.4772712102905	-135.837750329971	0	0	0	0	0	0	
62020006.6688896	-3.46925899065087	-138.444092639563	0	0	0	0	0	0	
63020340.113371	-3.47048407136515	-141.102943945796	0	0	0	0	0	0	
64020673.5578525	-3.47575823568106	-143.774376214494	0	0	0	0	0	0	
65021007.002334	-3.48244893716175	-146.486330044697	0	0	0	0	0	0	
66021340.4468155	-3.49774288554339	-149.265953769445	0	0	0	0	0	0	
67021673.891297	-3.5113949927783	-152.087377623915	0	0	0	0	0	0	
68022007.3357785	-3.53087872149225	-155.018803570879	0	0	0	0	0	0	
69022340.78026	-3.55534486141709	-158.009112341836	0	0	0	0	0	0	
70022674.2247415	-3.57926339498694	-161.10765154791	0	0	0	0	0	0	
71023007.669223	-3.60222205535031	-164.256117756111	0	0	0	0	0	0	
72023341.1137045	-3.62878799510982	-167.411618973731	0	0	0	0	0	0	
73023674.558186	-3.64528336472662	-170.672585723101	0	0	0	0	0	0	
74024008.0026675	-3.65591905587307	-174.01650702047	0	0	0	0	0	0	
75024341.4471489	-3.66254937095484	-177.50904486488	0	0	0	0	0	0	
76024674.8916304	-3.67443693085196	178.963498978524	0	0	0	0	0	0	
77025008.3361119	-3.68064128371493	175.4193880912	0	0	0	0	0	0	
78025341.7805934	-3.67784237015196	171.828959990872	0	0	0	0	0	0	
79025675.2250749	-3.66243244908738	168.153531939765	0	0	0	0	0	0	
80026008.6695564	-3.64596137695279	164.371501306836	0	0	0	0	0	0	
81026342.1140379	-3.6346322529848	160.506535514762	0	0	0	0	0	0	
82026675.5585194	-3.62623605198294	156.663265163171	0	0	0	0	0	0	
83027009.0030009	-3.60786445424886	152.833081479528	0	0	0	0	0	0	
84027342.4474824	-3.58189594732474	148.863612178887	0	0	0	0	0	0	
85027675.8919639	-3.57244983261353	144.786779619619	0	0	0	0	0	0	
86028009.3364454	-3.57911217510575	140.674505789685	0	0	0	0	0	0	
87028342.7809269	-3.59164314626236	136.560533342775	0	0	0	0	0	0	
88028676.2254083	-3.61945988065185	132.435459299969	0	0	0	0	0	0	
89029009.6698898	-3.63704993916351	128.249516013344	0	0	0	0	0	0	
90029343.1143713	-3.66735081435486	123.853023267859	0	0	0	0	0	0	
91029676.5588528	-3.73215093033495	119.353237685173	0	0	0	0	0	0	
92030010.0033343	-3.81679813796054	114.889169691512	0	0	0	0	0	0	
93030343.4478158	-3.90285017428504	110.384281891083	0	0	0	0	0	0	
94030676.8922973	-3.98471763358074	105.696880197328	0	0	0	0	0	0	
95031010.3367788	-4.08003114867321	100.839677678371	0	0	0	0	0	0	
96031343.7812603	-4.19941397447892	95.81221791271	0	0	0	0	0	0	
97031677.2257418	-4.32147034956092	90.5832397303955	0	0	0	0	0	0	
98032010.6702233	-4.46904756395329	85.2951174049637	0	0	0	0	0	0	
99032344.1147048	-4.61446020866469	79.9450064623093	0	0	0	0	0	0	
100032677.559186	-4.75237963195984	74.4602594765496	0	0	0	0	0	0	
101033011.003668	-4.88920902644208	68.8098022490279	0	0	0	0	0	0	
102033344.448149	-5.02830865221889	62.9551849848781	0	0	0	0	0	0	
103033677.892631	-5.16990070248756	56.9385067272059	0	0	0	0	0	0	
104034011.337112	-5.31892396808896	50.8215792954734	0	0	0	0	0	0	
105034344.781594	-5.48359505570581	44.5087103348453	0	0	0	0	0	0	
106034678.226075	-5.67885652042115	38.2283241377212	0	0	0	0	0	0	
107035011.670557	-5.89386233708358	32.1960599202349	0	0	0	0	0	0	
108035345.115038	-6.06004078591327	26.4535858184115	0	0	0	0	0	0	
109035678.55952	-6.18626767216327	20.5764025596968	0	0	0	0	0	0	
110036012.004001	-6.31978062075794	14.506606469499	0	0	0	0	0	0	
111036345.448483	-6.45982362587343	8.36015492622386	0	0	0	0	0	0	
112036678.892964	-6.6401513140655	2.07305626725371	0	0	0	0	0	0	
113037012.337446	-6.87130207142902	-3.89441772643567	0	0	0	0	0	0	
114037345.781927	-7.12978856877456	-9.60738619390738	0	0	0	0	0	0	
115037679.226409	-7.3688039653927	-14.8772889389023	0	0	0	0	0	0	
116038012.67089	-7.55539118704218	-20.096945035678	0	0	0	0	0	0	
117038346.115372	-7.7426153952033	-25.5072167626865	0	0	0	0	0	0	
118038679.559853	-7.93503948388069	-30.8799301497554	0	0	0	0	0	0	
119039013.004335	-8.11265694711761	-36.2581252022227	0	0	0	0	0	0	
120039346.448816	-8.28936079143351	-41.7446781915808	0	0	0	0	0	0	
121039679.893298	-8.48769626458822	-47.277137979517	0	0	0	0	0	0	
122040013.337779	-8.6944461265057	-52.6395588058089	0	0	0	0	0	0	
123040346.782261	-8.88795345856198	-57.7608244569837	0	0	0	0	0	0	
124040680.226742	-9.03187551421762	-62.6450452295128	0	0	0	0	0	0	
125041013.671224	-9.12198041855694	-67.4802426982346	0	0	0	0	0	0	
126041347.115705	-9.13819445925441	-72.510809567572	0	0	0	0	0	0	
127041680.560187	-9.15461947632286	-77.8654548268538	0	0	0	0	0	0	
128042014.004668	-9.19904024029154	-83.1969646852792	0	0	0	0	0	0	
129042347.44915	-9.25727099862268	-88.3596078381655	0	0	0	0	0	0	
130042680.893631	-9.32982500937936	-93.1766098839035	0	0	0	0	0	0	
131043014.338113	-9.39299451585386	-97.4448134043889	0	0	0	0	0	0	
132043347.782594	-9.36742461959419	-101.414258737158	0	0	0	0	0	0	
133043681.227075	-9.29466065104098	-105.323921503298	0	0	0	0	0	0	
134044014.671557	-9.19787502206924	-109.403921140247	0	0	0	0	0	0	
135044348.116038	-9.12884204821402	-113.553281216567	0	0	0	0	0	0	
136044681.56052	-9.09218297851613	-117.524616634324	0	0	0	0	0	0	
137045015.005001	-9.07360923549523	-121.281723040224	0	0	0	0	0	0	
138045348.449483	-9.05533551986801	-124.69777012759	0	0	0	0	0	0	
139045681.893964	-9.01944838997789	-128.023688621177	0	0	0	0	0	0	
140046015.338446	-8.98148122115954	-131.408991223369	0	0	0	0	0	0	
141046348.782927	-9.01172402330974	-134.393575360545	0	0	0	0	0	0	
142046682.227409	-8.93787271653253	-137.437978805269	0	0	0	0	0	0	
143047015.67189	-8.8806083638338	-140.778681031546	0	0	0	0	0	0	
144047349.116372	-8.86549606796327	-144.348087255474	0	0	0	0	0	0	
145047682.560853	-8.90382754454897	-147.850861368988	0	0	0	0	0	0	
146048016.005335	-8.97456702917639	-151.085489856642	0	0	0	0	0	0	
147048349.449816	-9.0303396787123	-154.078556201677	0	0	0	0	0	0	
148048682.894298	-9.05952418802267	-156.976323223262	0	0	0	0	0	0	
149049016.338779	-9.08589417143789	-159.884940693544	0	0	0	0	0	0	
150049349.783261	-9.08589412231029	-162.594106062904	0	0	0	0	0	0	
151049683.227742	-8.99025197069539	-165.467219912937	0	0	0	0	0	0	
152050016.672224	-8.93667004599414	-168.887031749713	0	0	0	0	0	0	
153050350.116705	-8.92395565317384	-172.308227852609	0	0	0	0	0	0	
154050683.561187	-8.92840110967389	-175.473761188876	0	0	0	0	0	0	
155051017.005668	-8.91670236273646	-178.248990494762	0	0	0	0	0	0	
156051350.45015	-8.85325194795931	178.803915324205	0	0	0	0	0	0	
157051683.894631	-8.78557359674357	176.083054837805	0	0	0	0	0	0	
158052017.339113	-8.69248181562519	173.35709672478	0	0	0	0	0	0	
159052350.783594	-8.57965201138307	170.507663275426	0	0	0	0	0	0	
160052684.228076	-8.48197006056753	167.566020026702	0	0	0	0	0	0	
161053017.672557	-8.42267315098747	164.749095940342	0	0	0	0	0	0	
162053351.117039	-8.37192547590691	162.278017743533	0	0	0	0	0	0	
163053684.56152	-8.30118660231869	160.041077098463	0	0	0	0	0	0	
164054018.006002	-8.21204736402779	157.892490303865	0	0	0	0	0	0	
165054351.450483	-8.09737668896969	155.791886629509	0	0	0	0	0	0	
166054684.894965	-7.9594350204961	153.558411840241	0	0	0	0	0	0	
167055018.339446	-7.8477631563124	151.19684654154	0	0	0	0	0	0	
168055351.783928	-7.73886673859986	148.810804044629	0	0	0	0	0	0	
169055685.228409	-7.65014699892355	146.140650696759	0	0	0	0	0	0	
170056018.672891	-7.67102565667333	143.559978629599	0	0	0	0	0	0	
171056352.117372	-7.66481749260464	141.600788842965	0	0	0	0	0	0	
172056685.561854	-7.62506024856916	139.507670366775	0	0	0	0	0	0	
173057019.006335	-7.59299396785701	137.371938658941	0	0	0	0	0	0	
174057352.450817	-7.54165917998179	135.209656661563	0	0	0	0	0	0	
175057685.895298	-7.49830170764137	132.71306072445	0	0	0	0	0	0	
176058019.33978	-7.49005857778083	130.069952617859	0	0	0	0	0	0	
177058352.784261	-7.53844432966963	127.452303412562	0	0	0	0	0	0	
178058686.228743	-7.56005828312214	125.216105421361	0	0	0	0	0	0	
179059019.673224	-7.56489730794082	122.746280376969	0	0	0	0	0	0	
180059353.117706	-7.59259997880475	120.253386954497	0	0	0	0	0	0	
181059686.562187	-7.60589825469947	117.854035829551	0	0	0	0	0	0	
182060020.006669	-7.58734248018743	115.320706951149	0	0	0	0	0	0	
183060353.45115	-7.58930232630908	112.618699761807	0	0	0	0	0	0	
184060686.895632	-7.59405802397037	109.93147276171	0	0	0	0	0	0	
185061020.340113	-7.60308856044738	107.19386362834	0	0	0	0	0	0	
186061353.784595	-7.6229805023964	104.432211061521	0	0	0	0	0	0	
187061687.229076	-7.66448938502803	101.742145923918	0	0	0	0	0	0	
188062020.673558	-7.72546654293462	99.4082728910047	0	0	0	0	0	0	
189062354.118039	-7.72501339766699	97.3992732813065	0	0	0	0	0	0	
190062687.562521	-7.68233253343207	95.012712847566	0	0	0	0	0	0	
191063021.007002	-7.68368735438474	92.8592942037714	0	0	0	0	0	0	
192063354.451484	-7.64769517416054	90.554722621753	0	0	0	0	0	0	
193063687.895965	-7.62231783155178	88.5122594300772	0	0	0	0	0	0	
194064021.340447	-7.58176526573077	86.425331034286	0	0	0	0	0	0	
195064354.784928	-7.55612413819493	84.2950562746747	0	0	0	0	0	0	
196064688.229409	-7.5351502422603	82.3270467769194	0	0	0	0	0	0	
197065021.673891	-7.50464310028332	80.4125714111785	0	0	0	0	0	0	
198065355.118372	-7.48551794115676	78.4324375506414	0	0	0	0	0	0	
199065688.562854	-7.47531866498702	76.6149123828733	0	0	0	0	0	0	
200066022.007335	-7.43695914157663	74.6909600319472	0	0	0	0	0	0	
201066355.451817	-7.44868585712973	72.5449024619397	0	0	0	0	0	0	
202066688.896298	-7.49597818832277	70.629887784693	0	0	0	0	0	0	
203067022.34078	-7.54280915634109	68.8345300542095	0	0	0	0	0	0	
204067355.785261	-7.59780950055033	67.1338205402536	0	0	0	0	0	0	
205067689.229743	-7.63267023118766	65.438264270028	0	0	0	0	0	0	
206068022.674224	-7.66515227248214	63.7393163119158	0	0	0	0	0	0	
207068356.118706	-7.69774473518792	61.8818771137662	0	0	0	0	0	0	
208068689.563187	-7.74651516553442	59.9698721644819	0	0	0	0	0	0	
209069023.007669	-7.80596699842375	58.1076643830401	0	0	0	0	0	0	
210069356.45215	-7.87199857329981	56.2942514616163	0	0	0	0	0	0	
211069689.896632	-7.92324532768111	54.5532063524478	0	0	0	0	0	0	
212070023.341113	-7.97384955372062	52.7186232333118	0	0	0	0	0	0	
213070356.785595	-8.00369508587949	50.9625350985857	0	0	0	0	0	0	
214070690.230076	-8.0242969548506	49.1153138094546	0	0	0	0	0	0	
215071023.674558	-8.04412308943464	47.1604995911245	0	0	0	0	0	0	
216071357.119039	-8.06021359693895	45.2440544514201	0	0	0	0	0	0	
217071690.563521	-8.06586746510107	43.3422945322132	0	0	0	0	0	0	
218072024.008002	-8.06786968477782	41.423247922685	0	0	0	0	0	0	
219072357.452484	-8.071859631025	39.5077453708515	0	0	0	0	0	0	
220072690.896965	-8.05846218989063	37.6464724401506	0	0	0	0	0	0	
221073024.341447	-8.0400377993191	35.816776277438	0	0	0	0	0	0	
222073357.785928	-8.02393881308846	34.0225320177884	0	0	0	0	0	0	
223073691.23041	-7.98701829252198	32.3576188339575	0	0	0	0	0	0	
224074024.674891	-7.92756423577461	30.6480451923982	0	0	0	0	0	0	
225074358.119373	-7.86631511611003	28.815948959788	0	0	0	0	0	0	
226074691.563854	-7.82879369742682	26.9095917997784	0	0	0	0	0	0	
227075025.008336	-7.80685127677633	25.2449786761625	0	0	0	0	0	0	
228075358.452817	-7.76640841427318	23.6536332665206	0	0	0	0	0	0	
229075691.897299	-7.71782686028453	22.0929019565804	0	0	0	0	0	0	
230076025.34178	-7.66056610606008	20.4568872811865	0	0	0	0	0	0	
231076358.786262	-7.61005684704723	18.725119175233	0	0	0	0	0	0	
232076692.230743	-7.57765404117142	16.8973586150502	0	0	0	0	0	0	
233077025.675225	-7.5808849640692	15.0057112043076	0	0	0	0	0	0	
234077359.119706	-7.60988773171448	13.4229481790944	0	0	0	0	0	0	
235077692.564188	-7.61670823880623	11.9344779020895	0	0	0	0	0	0	
236078026.008669	-7.61666003833425	10.3340778708879	0	0	0	0	0	0	
237078359.453151	-7.60801879717164	8.66655329550453	0	0	0	0	0	0	
238078692.897632	-7.61574250805424	6.90960695111689	0	0	0	0	0	0	
239079026.342114	-7.62047636545838	5.18836677553845	0	0	0	0	0	0	
240079359.786595	-7.62140477865142	3.33235629993185	0	0	0	0	0	0	
241079693.231077	-7.62234704064399	1.31826075061863	0	0	0	0	0	0	
242080026.675558	-7.63794822891003	-0.831574388776982	0	0	0	0	0	0	
243080360.12004	-7.6742531403835	-2.99327836605958	0	0	0	0	0	0	
244080693.564521	-7.72843047856863	-5.06823306213383	0	0	0	0	0	0	
245081027.009003	-7.74851461094419	-6.96871854320782	0	0	0	0	0	0	
246081360.453484	-7.74481564360197	-9.11999190943164	0	0	0	0	0	0	
247081693.897966	-7.76436542006574	-11.4415987844523	0	0	0	0	0	0	
248082027.342447	-7.79511321290404	-13.6086017098933	0	0	0	0	0	0	
249082360.786929	-7.80376489183542	-15.8134783637414	0	0	0	0	0	0	
250082694.23141	-7.80057921263744	-18.0592803790095	0	0	0	0	0	0	
251083027.675892	-7.81151214163768	-20.3433552550845	0	0	0	0	0	0	
252083361.120373	-7.81763721433137	-22.5117436838788	0	0	0	0	0	0	
253083694.564855	-7.82283762719551	-24.6221525561129	0	0	0	0	0	0	
254084028.009336	-7.8198007058031	-26.6804806601091	0	0	0	0	0	0	
255084361.453818	-7.80813299622662	-28.6707952624059	0	0	0	0	0	0	
256084694.898299	-7.77652810058854	-30.6715008645127	0	0	0	0	0	0	
257085028.342781	-7.75994762311707	-32.7620821346548	0	0	0	0	0	0	
258085361.787262	-7.76028693816752	-34.7711224206149	0	0	0	0	0	0	
259085695.231743	-7.77968317719058	-36.6256878599491	0	0	0	0	0	0	
260086028.676225	-7.78907058138616	-38.1995130532394	0	0	0	0	0	0	
261086362.120706	-7.74849245183143	-39.7717371825474	0	0	0	0	0	0	
262086695.565188	-7.71581456886177	-41.6722931264421	0	0	0	0	0	0	
263087029.009669	-7.72835178923527	-43.5562194160002	0	0	0	0	0	0	
264087362.454151	-7.74679461468451	-45.2562525461882	0	0	0	0	0	0	
265087695.898632	-7.7652823719946	-46.9843343948784	0	0	0	0	0	0	
266088029.343114	-7.7973803361764	-48.7331467215196	0	0	0	0	0	0	
267088362.787595	-7.84578639247383	-50.4477008669109	0	0	0	0	0	0	
268088696.232077	-7.90199954193998	-52.1005558211613	0	0	0	0	0	0	
269089029.676558	-7.94836857025023	-53.7584981394525	0	0	0	0	0	0	
270089363.12104	-8.02480992410072	-55.4258877543829	0	0	0	0	0	0	
271089696.565521	-8.08181096585007	-56.9695720692105	0	0	0	0	0	0	
272090030.010003	-8.11812445731216	-58.6456323559041	0	0	0	0	0	0	
273090363.454484	-8.1529909863963	-60.4585297150447	0	0	0	0	0	0	
274090696.898966	-8.21003084258728	-62.4701997719005	0	0	0	0	0	0	
275091030.343447	-8.29175722350382	-64.4549516505932	0	0	0	0	0	0	
276091363.787929	-8.3753069159611	-66.2437163329472	0	0	0	0	0	0	
277091697.23241	-8.43379981952531	-68.0049422434624	0	0	0	0	0	0	
278092030.676892	-8.46977446393195	-69.8408602320828	0	0	0	0	0	0	
279092364.121373	-8.49577811052349	-71.7286481219132	0	0	0	0	0	0	
280092697.565855	-8.51701651513629	-73.8646997651173	0	0	0	0	0	0	
281093031.010336	-8.54157097382766	-76.0232969689661	0	0	0	0	0	0	
282093364.454818	-8.57379721176992	-78.1833252089298	0	0	0	0	0	0	
283093697.899299	-8.60166090650207	-80.3062112819209	0	0	0	0	0	0	
284094031.343781	-8.62851656541513	-82.4124131761735	0	0	0	0	0	0	
285094364.788262	-8.65769736355049	-84.4601538599631	0	0	0	0	0	0	
286094698.232744	-8.68085834136748	-86.3888097244476	0	0	0	0	0	0	
287095031.677225	-8.68626008860177	-88.2647821252014	0	0	0	0	0	0	
288095365.121707	-8.67681619262124	-90.1527442391744	0	0	0	0	0	0	
289095698.566188	-8.66977257066672	-92.0410767584341	0	0	0	0	0	0	
290096032.01067	-8.67841449576357	-94.0367143543781	0	0	0	0	0	0	
291096365.455151	-8.71423397471918	-95.785997908256	0	0	0	0	0	0	
292096698.899633	-8.73472986971571	-97.3316954231649	0	0	0	0	0	0	
293097032.344114	-8.73701649542557	-98.7530147153984	0	0	0	0	0	0	
294097365.788596	-8.71651041905328	-100.179638609185	0	0	0	0	0	0	
295097699.233077	-8.68197454997547	-101.747900142773	0	0	0	0	0	0	
296098032.677559	-8.65703593443836	-103.647005195604	0	0	0	0	0	0	
