!Keysight Technologies N9923A: A.08.09
!Date: Thursday, 02 August 2018 08:08:40
!Timezone: (GMT+08:00) Kuala Lumpur, Singapore
!Model: N9923A
!Serial: MY52412143
!GPS Latitude: 
!GPS Longitude: 
!GPS TimeStamp: 0001-01-01 00:00:00Z
!GPS Seconds Since Last Read: 0
!CHECKSUM:1509739294
!Correction: S11(ON U)S21()S12()S22()
!S2P File: Measurements:S11,S21,S12,S22:
# Hz S DB R 50
2000000	-4.26237662631871	24.1623061108737	0	0	0	0	0	0	
3000333.44448149	-3.96055324290345	13.4481224907771	0	0	0	0	0	0	
4000666.88896299	-3.84094085380667	6.67319507129139	0	0	0	0	0	0	
5001000.33344448	-3.77793198015796	1.71275381809881	0	0	0	0	0	0	
6001333.77792598	-3.74752837498847	-2.32192396814556	0	0	0	0	0	0	
7001667.22240747	-3.72555430988512	-5.78045622918404	0	0	0	0	0	0	
8002000.66688896	-3.71560467995133	-8.92972179379511	0	0	0	0	0	0	
9002334.11137046	-3.70377718883344	-11.8217330698495	0	0	0	0	0	0	
10002667.555852	-3.7022785903472	-14.5940176952627	0	0	0	0	0	0	
11003001.0003334	-3.69998445220113	-17.1954888492541	0	0	0	0	0	0	
12003334.4448149	-3.69813376657782	-19.7492394147566	0	0	0	0	0	0	
13003667.8892964	-3.6961654914603	-22.2135315461741	0	0	0	0	0	0	
14004001.3337779	-3.6930745265413	-24.6308616806671	0	0	0	0	0	0	
15004334.7782594	-3.69052871164027	-27.0318531700137	0	0	0	0	0	0	
16004668.2227409	-3.69331877548192	-29.358784368231	0	0	0	0	0	0	
17005001.6672224	-3.69122050896275	-31.6688768732094	0	0	0	0	0	0	
18005335.1117039	-3.69034048795231	-33.9385326779626	0	0	0	0	0	0	
19005668.5561854	-3.68795317454275	-36.2225816548883	0	0	0	0	0	0	
20006002.0006669	-3.68679907201486	-38.4818379531605	0	0	0	0	0	0	
21006335.4451484	-3.68471946664016	-40.7421806529203	0	0	0	0	0	0	
22006668.8896299	-3.68195945521286	-42.9732145535594	0	0	0	0	0	0	
23007002.3341114	-3.67732992147379	-45.2172997746056	0	0	0	0	0	0	
24007335.7785929	-3.67529735171052	-47.4456080813005	0	0	0	0	0	0	
25007669.2230743	-3.67727288942554	-49.6672369005469	0	0	0	0	0	0	
26008002.6675558	-3.67003976483683	-51.8570453144253	0	0	0	0	0	0	
27008336.1120373	-3.6630824639696	-54.0976626103826	0	0	0	0	0	0	
28008669.5565188	-3.65870839679132	-56.316646570281	0	0	0	0	0	0	
29009003.0010003	-3.65201068459649	-58.5141702383174	0	0	0	0	0	0	
30009336.4454818	-3.65038523064964	-60.7176668954581	0	0	0	0	0	0	
31009669.8899633	-3.64492206187525	-62.9559002055164	0	0	0	0	0	0	
32010003.3344448	-3.63864458623253	-65.1706005082221	0	0	0	0	0	0	
33010336.7789263	-3.63573350263524	-67.4088408941029	0	0	0	0	0	0	
34010670.2234078	-3.63060341109846	-69.6402018212809	0	0	0	0	0	0	
35011003.6678893	-3.62680990812203	-71.9316758956577	0	0	0	0	0	0	
36011337.1123708	-3.62540484057052	-74.1886634662125	0	0	0	0	0	0	
37011670.5568523	-3.61946659977798	-76.4586110578873	0	0	0	0	0	0	
38012004.0013337	-3.6150380268959	-78.7388765818086	0	0	0	0	0	0	
39012337.4458152	-3.61019707833112	-81.0710581053177	0	0	0	0	0	0	
40012670.8902967	-3.6029792253002	-83.4025334862208	0	0	0	0	0	0	
41013004.3347782	-3.59601996578622	-85.7354208664426	0	0	0	0	0	0	
42013337.7792597	-3.58696784400831	-88.0699258700492	0	0	0	0	0	0	
43013671.2237412	-3.57745217226948	-90.4412973923702	0	0	0	0	0	0	
44014004.6682227	-3.57247970031349	-92.7926597021677	0	0	0	0	0	0	
45014338.1127042	-3.56549626981662	-95.1887999772908	0	0	0	0	0	0	
46014671.5571857	-3.55501452591852	-97.5715149669092	0	0	0	0	0	0	
47015005.0016672	-3.55141094017823	-100.002923770632	0	0	0	0	0	0	
48015338.4461487	-3.54393540587605	-102.409945409875	0	0	0	0	0	0	
49015671.8906302	-3.53560449273888	-104.874815994048	0	0	0	0	0	0	
50016005.3351116	-3.5267393253461	-107.357563399822	0	0	0	0	0	0	
51016338.7795931	-3.51564884153748	-109.846610877904	0	0	0	0	0	0	
52016672.2240746	-3.50868947284709	-112.365184389426	0	0	0	0	0	0	
53017005.6685561	-3.49829263918421	-114.90534871591	0	0	0	0	0	0	
54017339.1130376	-3.49136720005348	-117.490734154942	0	0	0	0	0	0	
55017672.5575191	-3.48177166367786	-120.075519544871	0	0	0	0	0	0	
56018006.0020006	-3.46958028219824	-122.706934694374	0	0	0	0	0	0	
57018339.4464821	-3.45846776969522	-125.328625621259	0	0	0	0	0	0	
58018672.8909636	-3.44902642916429	-128.003910566353	0	0	0	0	0	0	
59019006.3354451	-3.43925522473934	-130.682293482655	0	0	0	0	0	0	
60019339.7799266	-3.42810481208168	-133.38222894498	0	0	0	0	0	0	
61019673.2244081	-3.41496710541936	-136.146520312018	0	0	0	0	0	0	
62020006.6688896	-3.40185409758579	-138.930079432353	0	0	0	0	0	0	
63020340.113371	-3.39463253143707	-141.756806066623	0	0	0	0	0	0	
64020673.5578525	-3.38184559703281	-144.609272474142	0	0	0	0	0	0	
65021007.002334	-3.37711156520205	-147.536876705059	0	0	0	0	0	0	
66021340.4468155	-3.37155466117241	-150.489825685473	0	0	0	0	0	0	
67021673.891297	-3.36490773432769	-153.475337713755	0	0	0	0	0	0	
68022007.3357785	-3.36446811185328	-156.506387484488	0	0	0	0	0	0	
69022340.78026	-3.3611395444539	-159.568374339535	0	0	0	0	0	0	
70022674.2247415	-3.35785718935148	-162.702925078395	0	0	0	0	0	0	
71023007.669223	-3.35293252877075	-165.888473495515	0	0	0	0	0	0	
72023341.1137045	-3.3529743428844	-169.089495041358	0	0	0	0	0	0	
73023674.558186	-3.34962367236703	-172.341872124213	0	0	0	0	0	0	
74024008.0026675	-3.35127354004589	-175.705325719212	0	0	0	0	0	0	
75024341.4471489	-3.35454840569342	-179.089536397954	0	0	0	0	0	0	
76024674.8916304	-3.359239602832	177.442061298574	0	0	0	0	0	0	
77025008.3361119	-3.3650252449279	173.913483322766	0	0	0	0	0	0	
78025341.7805934	-3.37643273137606	170.321206876325	0	0	0	0	0	0	
79025675.2250749	-3.39393058499564	166.655860281585	0	0	0	0	0	0	
80026008.6695564	-3.41080354394424	162.959199996816	0	0	0	0	0	0	
81026342.1140379	-3.42373051173502	159.202154090335	0	0	0	0	0	0	
82026675.5585194	-3.4406777763451	155.300718143711	0	0	0	0	0	0	
83027009.0030009	-3.46439968481406	151.305285551112	0	0	0	0	0	0	
84027342.4474824	-3.49926775323919	147.190223965712	0	0	0	0	0	0	
85027675.8919639	-3.54542411433514	143.086229153126	0	0	0	0	0	0	
86028009.3364454	-3.59054086435065	138.830929170967	0	0	0	0	0	0	
87028342.7809269	-3.64773375577477	134.52743537332	0	0	0	0	0	0	
88028676.2254083	-3.7115351041003	130.10976385061	0	0	0	0	0	0	
89029009.6698898	-3.79055304296446	125.630972241394	0	0	0	0	0	0	
90029343.1143713	-3.87572074788247	121.109445644074	0	0	0	0	0	0	
91029676.5588528	-3.96531048790277	116.502631650354	0	0	0	0	0	0	
92030010.0033343	-4.0554295430969	111.825882564074	0	0	0	0	0	0	
93030343.4478158	-4.14188586293132	106.966973365027	0	0	0	0	0	0	
94030676.8922973	-4.248276684741	101.888625851114	0	0	0	0	0	0	
95031010.3367788	-4.3765091670079	96.6491559838306	0	0	0	0	0	0	
96031343.7812603	-4.54271754735662	91.4589228486106	0	0	0	0	0	0	
97031677.2257418	-4.72278626439995	86.20293528768	0	0	0	0	0	0	
98032010.6702233	-4.90456090345012	81.0792764408775	0	0	0	0	0	0	
99032344.1147048	-5.08744476030923	75.8117213118988	0	0	0	0	0	0	
100032677.559186	-5.29812176600049	70.5084692787111	0	0	0	0	0	0	
101033011.003668	-5.50517125538121	65.5252038522976	0	0	0	0	0	0	
102033344.448149	-5.66786984699984	60.4836913477787	0	0	0	0	0	0	
103033677.892631	-5.80450279642701	55.24772110692	0	0	0	0	0	0	
104034011.337112	-5.93931219797665	49.5797284125051	0	0	0	0	0	0	
105034344.781594	-6.12025279781717	43.74208225412	0	0	0	0	0	0	
106034678.226075	-6.3175743983858	38.0134975693326	0	0	0	0	0	0	
107035011.670557	-6.52380335506867	32.2318207151195	0	0	0	0	0	0	
108035345.115038	-6.71947166136403	26.5276201354975	0	0	0	0	0	0	
109035678.55952	-6.91276787661694	20.6687186970648	0	0	0	0	0	0	
110036012.004001	-7.1175611376284	14.8817603536539	0	0	0	0	0	0	
111036345.448483	-7.32394668050241	9.20545598953195	0	0	0	0	0	0	
112036678.892964	-7.51940805179366	3.57639209036707	0	0	0	0	0	0	
113037012.337446	-7.68334398478818	-1.8582922668924	0	0	0	0	0	0	
114037345.781927	-7.79218223277307	-7.44624681714198	0	0	0	0	0	0	
115037679.226409	-7.91533258495044	-13.5496190963881	0	0	0	0	0	0	
116038012.67089	-8.10650456896236	-19.5085783725245	0	0	0	0	0	0	
117038346.115372	-8.28928477536839	-25.0441292421763	0	0	0	0	0	0	
118038679.559853	-8.43252386397374	-30.3941942668356	0	0	0	0	0	0	
119039013.004335	-8.52848557590454	-35.8121220742048	0	0	0	0	0	0	
120039346.448816	-8.61812027688904	-41.4219555672653	0	0	0	0	0	0	
121039679.893298	-8.73489219259177	-46.9076503103142	0	0	0	0	0	0	
122040013.337779	-8.84071310641261	-52.0065552257241	0	0	0	0	0	0	
123040346.782261	-8.89135717297389	-57.0762721447866	0	0	0	0	0	0	
124040680.226742	-8.91970956753039	-62.2485735856468	0	0	0	0	0	0	
125041013.671224	-8.95005939890494	-67.5535221933871	0	0	0	0	0	0	
126041347.115705	-9.00324361560637	-72.7774410060392	0	0	0	0	0	0	
127041680.560187	-9.07384752930207	-77.7534948397714	0	0	0	0	0	0	
128042014.004668	-9.13705969573958	-82.4083623735728	0	0	0	0	0	0	
129042347.44915	-9.16918870795612	-86.8963155896526	0	0	0	0	0	0	
130042680.893631	-9.14640777619727	-91.2065565385259	0	0	0	0	0	0	
131043014.338113	-9.11382205057186	-95.7825146183852	0	0	0	0	0	0	
132043347.782594	-9.12067265472521	-100.384451061842	0	0	0	0	0	0	
133043681.227075	-9.12936514747993	-104.558883220495	0	0	0	0	0	0	
134044014.671557	-9.07748980736454	-108.555118468611	0	0	0	0	0	0	
135044348.116038	-9.01660234853179	-112.806550430455	0	0	0	0	0	0	
136044681.56052	-8.97923568204238	-117.106401840534	0	0	0	0	0	0	
137045015.005001	-8.97427593190758	-121.246935090728	0	0	0	0	0	0	
138045348.449483	-8.97062490094071	-125.100421197691	0	0	0	0	0	0	
139045681.893964	-8.95092502700743	-128.792895952269	0	0	0	0	0	0	
140046015.338446	-8.93103870101809	-132.329981646737	0	0	0	0	0	0	
141046348.782927	-8.88668439346006	-135.787609489224	0	0	0	0	0	0	
142046682.227409	-8.8311510026063	-139.308967650168	0	0	0	0	0	0	
143047015.67189	-8.7941128348462	-142.775181452721	0	0	0	0	0	0	
144047349.116372	-8.76184619893378	-146.055451033656	0	0	0	0	0	0	
145047682.560853	-8.68664074324168	-149.235938613748	0	0	0	0	0	0	
146048016.005335	-8.60285857422179	-152.710575331662	0	0	0	0	0	0	
147048349.449816	-8.56396307814086	-156.266428835608	0	0	0	0	0	0	
148048682.894298	-8.54705599596344	-159.636730154774	0	0	0	0	0	0	
149049016.338779	-8.55326447673847	-162.777146167397	0	0	0	0	0	0	
150049349.783261	-8.53406426604239	-165.589769929873	0	0	0	0	0	0	
151049683.227742	-8.46726724251814	-168.574201525198	0	0	0	0	0	0	
152050016.672224	-8.42740316824069	-171.655672379959	0	0	0	0	0	0	
153050350.116705	-8.40488778937324	-174.677484001214	0	0	0	0	0	0	
154050683.561187	-8.39068432136213	-177.648843662134	0	0	0	0	0	0	
155051017.005668	-8.37646273285797	179.649726306024	0	0	0	0	0	0	
156051350.45015	-8.33044051552449	176.906440071098	0	0	0	0	0	0	
157051683.894631	-8.29182260512158	174.095664961012	0	0	0	0	0	0	
158052017.339113	-8.26331345508739	171.297102466696	0	0	0	0	0	0	
159052350.783594	-8.25226607713893	168.491623031225	0	0	0	0	0	0	
160052684.228076	-8.24027592018347	165.855468586339	0	0	0	0	0	0	
161053017.672557	-8.22169576256534	163.21686641994	0	0	0	0	0	0	
162053351.117039	-8.2099038417966	160.750656865239	0	0	0	0	0	0	
163053684.56152	-8.16976984634701	158.20619101173	0	0	0	0	0	0	
164054018.006002	-8.14810140616932	155.528941487556	0	0	0	0	0	0	
165054351.450483	-8.13455326647818	152.976661172923	0	0	0	0	0	0	
166054684.894965	-8.13739283208119	150.341678773887	0	0	0	0	0	0	
167055018.339446	-8.1395679620642	148.050125758606	0	0	0	0	0	0	
168055351.783928	-8.11049742268976	145.626897384674	0	0	0	0	0	0	
169055685.228409	-8.10279928021333	143.170293469299	0	0	0	0	0	0	
170056018.672891	-8.10059329301626	140.721519469625	0	0	0	0	0	0	
171056352.117372	-8.1079027388058	138.385897173985	0	0	0	0	0	0	
172056685.561854	-8.09905387284551	136.216056201017	0	0	0	0	0	0	
173057019.006335	-8.07298429078122	133.895843539661	0	0	0	0	0	0	
174057352.450817	-8.05487395916808	131.536156143317	0	0	0	0	0	0	
175057685.895298	-8.04174596162856	129.205774082558	0	0	0	0	0	0	
176058019.33978	-8.0408866018452	126.80471648534	0	0	0	0	0	0	
177058352.784261	-8.05183923846134	124.631709064522	0	0	0	0	0	0	
178058686.228743	-8.03858271523449	122.498433837882	0	0	0	0	0	0	
179059019.673224	-8.018768394885	120.316013305557	0	0	0	0	0	0	
180059353.117706	-8.01295092514679	118.134565871494	0	0	0	0	0	0	
181059686.562187	-8.0087504825086	115.943716374145	0	0	0	0	0	0	
182060020.006669	-8.00341329521062	113.873631698712	0	0	0	0	0	0	
183060353.45115	-8.0045088367708	111.957081158684	0	0	0	0	0	0	
184060686.895632	-7.96226572359955	110.011479233757	0	0	0	0	0	0	
185061020.340113	-7.91576478713526	107.874297000336	0	0	0	0	0	0	
186061353.784595	-7.92065019136328	105.689614404048	0	0	0	0	0	0	
187061687.229076	-7.90278707269517	103.840281983798	0	0	0	0	0	0	
188062020.673558	-7.86578110529342	101.917106595006	0	0	0	0	0	0	
189062354.118039	-7.8117558980664	99.8972945492705	0	0	0	0	0	0	
190062687.562521	-7.76594914420193	97.6642425066483	0	0	0	0	0	0	
191063021.007002	-7.75790644314963	95.4801773488422	0	0	0	0	0	0	
192063354.451484	-7.75012331202908	93.5190970746364	0	0	0	0	0	0	
193063687.895965	-7.7209739344926	91.6150170284634	0	0	0	0	0	0	
194064021.340447	-7.67637409676305	89.6135207939018	0	0	0	0	0	0	
195064354.784928	-7.64048607753241	87.4681397382356	0	0	0	0	0	0	
196064688.229409	-7.63277039378133	85.3558742720384	0	0	0	0	0	0	
197065021.673891	-7.61395488244755	83.4016435106914	0	0	0	0	0	0	
198065355.118372	-7.58671042559099	81.4231397564132	0	0	0	0	0	0	
199065688.562854	-7.54599810450445	79.4342804619861	0	0	0	0	0	0	
200066022.007335	-7.52481199901621	77.3146305031218	0	0	0	0	0	0	
201066355.451817	-7.51554613851743	75.144450727571	0	0	0	0	0	0	
202066688.896298	-7.5210492993449	73.0303955412868	0	0	0	0	0	0	
203067022.34078	-7.53684188696511	71.0816271591169	0	0	0	0	0	0	
204067355.785261	-7.52533696213251	69.1639704678449	0	0	0	0	0	0	
205067689.229743	-7.49800010061136	67.1939771255506	0	0	0	0	0	0	
206068022.674224	-7.49412175450989	64.9908565387448	0	0	0	0	0	0	
207068356.118706	-7.51331408866303	62.8578841449878	0	0	0	0	0	0	
208068689.563187	-7.54086547483917	60.9050946468283	0	0	0	0	0	0	
209069023.007669	-7.53638581063908	59.1212499077284	0	0	0	0	0	0	
210069356.45215	-7.5067762771084	57.1878139986629	0	0	0	0	0	0	
211069689.896632	-7.48620768221003	54.9976392887175	0	0	0	0	0	0	
212070023.341113	-7.51271919862411	52.8183887893642	0	0	0	0	0	0	
213070356.785595	-7.54995962818941	50.9060115071236	0	0	0	0	0	0	
214070690.230076	-7.55007026287854	49.1125548630967	0	0	0	0	0	0	
215071023.674558	-7.53086985516869	47.1567354391524	0	0	0	0	0	0	
216071357.119039	-7.52072949787929	45.1533088955225	0	0	0	0	0	0	
217071690.563521	-7.52729686190981	43.0676610287569	0	0	0	0	0	0	
218072024.008002	-7.55425934900161	41.1267761508783	0	0	0	0	0	0	
219072357.452484	-7.56083483389814	39.2482012605186	0	0	0	0	0	0	
220072690.896965	-7.56279744163433	37.3543532094651	0	0	0	0	0	0	
221073024.341447	-7.55164979075686	35.5002904223439	0	0	0	0	0	0	
222073357.785928	-7.54683337878619	33.4524871884846	0	0	0	0	0	0	
223073691.23041	-7.56622125500731	31.4438014889715	0	0	0	0	0	0	
224074024.674891	-7.59039796160165	29.544128546642	0	0	0	0	0	0	
225074358.119373	-7.60035419532795	27.8532887674731	0	0	0	0	0	0	
226074691.563854	-7.58099123922256	26.0130978996277	0	0	0	0	0	0	
227075025.008336	-7.57113799291347	23.9865145919603	0	0	0	0	0	0	
228075358.452817	-7.59711670996981	22.0529510163278	0	0	0	0	0	0	
229075691.897299	-7.617052845933	20.2600490555866	0	0	0	0	0	0	
230076025.34178	-7.60651067119266	18.5566131561646	0	0	0	0	0	0	
231076358.786262	-7.60762600646431	16.6322676204716	0	0	0	0	0	0	
232076692.230743	-7.61392925601881	14.7790383646733	0	0	0	0	0	0	
233077025.675225	-7.62120172846059	12.9607243507612	0	0	0	0	0	0	
234077359.119706	-7.64589512768937	11.0665069661555	0	0	0	0	0	0	
235077692.564188	-7.66247022124155	9.43190577232587	0	0	0	0	0	0	
236078026.008669	-7.65648627362626	7.71734976375615	0	0	0	0	0	0	
237078359.453151	-7.64593900924619	5.87056548869868	0	0	0	0	0	0	
238078692.897632	-7.66104563026086	3.98091244120551	0	0	0	0	0	0	
239079026.342114	-7.67823246206324	2.1696026529548	0	0	0	0	0	0	
240079359.786595	-7.68562283105231	0.428379782915124	0	0	0	0	0	0	
241079693.231077	-7.67807161642231	-1.31037414725644	0	0	0	0	0	0	
242080026.675558	-7.66605832789138	-3.25230290009791	0	0	0	0	0	0	
243080360.12004	-7.6810402852322	-5.13730017771134	0	0	0	0	0	0	
244080693.564521	-7.69366559264569	-7.00273709747735	0	0	0	0	0	0	
245081027.009003	-7.69993885926719	-8.79029402943075	0	0	0	0	0	0	
246081360.453484	-7.72332745614688	-10.5976484682341	0	0	0	0	0	0	
247081693.897966	-7.7028270247875	-12.3680703265909	0	0	0	0	0	0	
248082027.342447	-7.70505519954411	-14.3546414951567	0	0	0	0	0	0	
249082360.786929	-7.72594830633138	-16.1463358967264	0	0	0	0	0	0	
250082694.23141	-7.71419819035945	-17.9565964343446	0	0	0	0	0	0	
251083027.675892	-7.71129092479971	-19.8088829258587	0	0	0	0	0	0	
252083361.120373	-7.70217883249386	-21.8450302092677	0	0	0	0	0	0	
253083694.564855	-7.72259287596906	-23.7743322618163	0	0	0	0	0	0	
254084028.009336	-7.72919669954833	-25.5832756499583	0	0	0	0	0	0	
255084361.453818	-7.7143869523956	-27.5791237713379	0	0	0	0	0	0	
256084694.898299	-7.73835908881963	-29.573088824006	0	0	0	0	0	0	
257085028.342781	-7.75545348676744	-31.4371272718433	0	0	0	0	0	0	
258085361.787262	-7.75109572424666	-33.2672253089945	0	0	0	0	0	0	
259085695.231743	-7.7602253556948	-35.307902522303	0	0	0	0	0	0	
260086028.676225	-7.78005856267516	-37.2689772690837	0	0	0	0	0	0	
261086362.120706	-7.80732845282291	-39.0522712800673	0	0	0	0	0	0	
262086695.565188	-7.81288889230639	-40.8659077044497	0	0	0	0	0	0	
263087029.009669	-7.80430660804101	-42.747920694644	0	0	0	0	0	0	
264087362.454151	-7.81421633699537	-44.8296115796791	0	0	0	0	0	0	
265087695.898632	-7.85173092809448	-46.8118417777962	0	0	0	0	0	0	
266088029.343114	-7.87945697975402	-48.5872094740998	0	0	0	0	0	0	
267088362.787595	-7.89168271462276	-50.516087322425	0	0	0	0	0	0	
268088696.232077	-7.91503744555596	-52.3069292729544	0	0	0	0	0	0	
269089029.676558	-7.91346143051146	-54.2532240882385	0	0	0	0	0	0	
270089363.12104	-7.95053245317085	-56.2902937139449	0	0	0	0	0	0	
271089696.565521	-7.97837512488993	-58.0678060289594	0	0	0	0	0	0	
272090030.010003	-8.00784458383434	-60.0315653800804	0	0	0	0	0	0	
273090363.454484	-8.03285886353073	-61.8272763541657	0	0	0	0	0	0	
274090696.898966	-8.06404315617266	-63.7349308930821	0	0	0	0	0	0	
275091030.343447	-8.07838449713444	-65.5833192798635	0	0	0	0	0	0	
276091363.787929	-8.10501943783072	-67.4995742076471	0	0	0	0	0	0	
277091697.23241	-8.16156375569614	-69.3613032259304	0	0	0	0	0	0	
278092030.676892	-8.19469905696619	-70.9808410976595	0	0	0	0	0	0	
279092364.121373	-8.19905744130726	-72.7522152209092	0	0	0	0	0	0	
280092697.565855	-8.20965610725179	-74.6847737633344	0	0	0	0	0	0	
281093031.010336	-8.2456265236621	-76.5932133166129	0	0	0	0	0	0	
282093364.454818	-8.28510805944483	-78.4608812454687	0	0	0	0	0	0	
283093697.899299	-8.3012273725173	-80.2077854695059	0	0	0	0	0	0	
284094031.343781	-8.33367638480906	-82.1113339285999	0	0	0	0	0	0	
285094364.788262	-8.359647920112	-83.9197287924799	0	0	0	0	0	0	
286094698.232744	-8.39611802506433	-85.8298457450785	0	0	0	0	0	0	
287095031.677225	-8.45571213839067	-87.5812798836338	0	0	0	0	0	0	
288095365.121707	-8.45991549713217	-89.2106723005017	0	0	0	0	0	0	
289095698.566188	-8.48989557051142	-91.056906656039	0	0	0	0	0	0	
290096032.01067	-8.51463653366389	-92.8052072911264	0	0	0	0	0	0	
291096365.455151	-8.52557567482407	-94.6088645028627	0	0	0	0	0	0	
292096698.899633	-8.54927458947604	-96.3932410879959	0	0	0	0	0	0	
293097032.344114	-8.54935394529387	-98.2314381815531	0	0	0	0	0	0	
294097365.788596	-8.58545717137617	-100.082899232511	0	0	0	0	0	0	
295097699.233077	-8.60837069039181	-101.925327372203	0	0	0	0	0	0	
296098032.677559	-8.63564441060052	-103.727607439965	0	0	0	0	0	0	
297098366.12204	-8.65994795979902	-105.509786787081	0	0	0	0	0	0	
