!Keysight Technologies N9923A: A.08.09
!Date: Thursday, 02 August 2018 07:22:11
!Timezone: (GMT+08:00) Kuala Lumpur, Singapore
!Model: N9923A
!Serial: MY52412143
!GPS Latitude: 
!GPS Longitude: 
!GPS TimeStamp: 0001-01-01 00:00:00Z
!GPS Seconds Since Last Read: 0
!CHECKSUM:1125329345
!Correction: S11(ON U)S21()S12()S22()
!S2P File: Measurements:S11,S21,S12,S22:
# Hz S DB R 50
2000000	-4.22342971634022	22.1297533554552	0	0	0	0	0	0	
3000333.44448149	-3.96279491912786	12.1900453212214	0	0	0	0	0	0	
4000666.88896299	-3.87007329408471	5.86663636345572	0	0	0	0	0	0	
5001000.33344448	-3.82904108960388	1.21964745543607	0	0	0	0	0	0	
6001333.77792598	-3.82135128519596	-2.57984446811874	0	0	0	0	0	0	
7001667.22240747	-3.82239753561124	-5.89972690598518	0	0	0	0	0	0	
8002000.66688896	-3.832816627141	-8.9649588416363	0	0	0	0	0	0	
9002334.11137046	-3.85045875789784	-11.801525033736	0	0	0	0	0	0	
10002667.555852	-3.86752724458913	-14.5345678541926	0	0	0	0	0	0	
11003001.0003334	-3.88624816479358	-17.1587138381287	0	0	0	0	0	0	
12003334.4448149	-3.90165960415954	-19.7252312329167	0	0	0	0	0	0	
13003667.8892964	-3.9154577023464	-22.2278709905062	0	0	0	0	0	0	
14004001.3337779	-3.92440041200113	-24.6871804505013	0	0	0	0	0	0	
15004334.7782594	-3.9297618617104	-27.1361299545699	0	0	0	0	0	0	
16004668.2227409	-3.933103423165	-29.544019132154	0	0	0	0	0	0	
17005001.6672224	-3.93050089167384	-31.9285559722913	0	0	0	0	0	0	
18005335.1117039	-3.92329296228596	-34.2760536460067	0	0	0	0	0	0	
19005668.5561854	-3.91241987029244	-36.6308105325878	0	0	0	0	0	0	
20006002.0006669	-3.89685670053673	-38.9343535349437	0	0	0	0	0	0	
21006335.4451484	-3.87546900017907	-41.2280477544067	0	0	0	0	0	0	
22006668.8896299	-3.85467653377026	-43.5052947724781	0	0	0	0	0	0	
23007002.3341114	-3.8257131931367	-45.760445457514	0	0	0	0	0	0	
24007335.7785929	-3.80639466516095	-47.9564185383716	0	0	0	0	0	0	
25007669.2230743	-3.78590735903938	-50.1911169082346	0	0	0	0	0	0	
26008002.6675558	-3.75744142661541	-52.3620762693704	0	0	0	0	0	0	
27008336.1120373	-3.73519029381957	-54.539025907106	0	0	0	0	0	0	
28008669.5565188	-3.71038381886039	-56.6759604555147	0	0	0	0	0	0	
29009003.0010003	-3.696190440265	-58.7949558106703	0	0	0	0	0	0	
30009336.4454818	-3.68078104882648	-60.9360376911656	0	0	0	0	0	0	
31009669.8899633	-3.66850023273031	-63.0537683359109	0	0	0	0	0	0	
32010003.3344448	-3.6644829253134	-65.1974975022028	0	0	0	0	0	0	
33010336.7789263	-3.66545212816837	-67.348128009863	0	0	0	0	0	0	
34010670.2234078	-3.66636434669005	-69.5080314895009	0	0	0	0	0	0	
35011003.6678893	-3.67580972138638	-71.7204169765604	0	0	0	0	0	0	
36011337.1123708	-3.68549960675571	-73.9173993447431	0	0	0	0	0	0	
37011670.5568523	-3.69979910188203	-76.1663037846395	0	0	0	0	0	0	
38012004.0013337	-3.71432452032115	-78.421849594264	0	0	0	0	0	0	
39012337.4458152	-3.7252519797831	-80.6992162671414	0	0	0	0	0	0	
40012670.8902967	-3.7370032779474	-83.0423339115412	0	0	0	0	0	0	
41013004.3347782	-3.75304056099737	-85.4167551105608	0	0	0	0	0	0	
42013337.7792597	-3.76498759457749	-87.7972229101132	0	0	0	0	0	0	
43013671.2237412	-3.77153281309096	-90.2129396800486	0	0	0	0	0	0	
44014004.6682227	-3.77597118087479	-92.6524070379903	0	0	0	0	0	0	
45014338.1127042	-3.77860982311263	-95.1038023980021	0	0	0	0	0	0	
46014671.5571857	-3.77799192183007	-97.5681792558953	0	0	0	0	0	0	
47015005.0016672	-3.76918576903354	-100.08786166209	0	0	0	0	0	0	
48015338.4461487	-3.76040233638044	-102.616318298932	0	0	0	0	0	0	
49015671.8906302	-3.74453382180628	-105.163679682017	0	0	0	0	0	0	
50016005.3351116	-3.72744951925803	-107.706302168573	0	0	0	0	0	0	
51016338.7795931	-3.7100282344736	-110.258145361815	0	0	0	0	0	0	
52016672.2240746	-3.68068495783123	-112.803581273444	0	0	0	0	0	0	
53017005.6685561	-3.65234734682889	-115.368312833724	0	0	0	0	0	0	
54017339.1130376	-3.62578884832737	-117.913898228758	0	0	0	0	0	0	
55017672.5575191	-3.59081200026213	-120.477254308081	0	0	0	0	0	0	
56018006.0020006	-3.56443165912977	-123.016106299408	0	0	0	0	0	0	
57018339.4464821	-3.53301899554439	-125.573576018226	0	0	0	0	0	0	
58018672.8909636	-3.50508048723392	-128.160125360572	0	0	0	0	0	0	
59019006.3354451	-3.47402888560932	-130.753900624002	0	0	0	0	0	0	
60019339.7799266	-3.45152588931278	-133.375758402276	0	0	0	0	0	0	
61019673.2244081	-3.43871032511996	-136.029453154044	0	0	0	0	0	0	
62020006.6688896	-3.42551148752151	-138.715516547888	0	0	0	0	0	0	
63020340.113371	-3.42443486266566	-141.43291084989	0	0	0	0	0	0	
64020673.5578525	-3.42556492136507	-144.180325055239	0	0	0	0	0	0	
65021007.002334	-3.43071713399477	-146.962027966377	0	0	0	0	0	0	
66021340.4468155	-3.44054329623519	-149.794707901018	0	0	0	0	0	0	
67021673.891297	-3.45461319997283	-152.687864108997	0	0	0	0	0	0	
68022007.3357785	-3.4707536018164	-155.66900712874	0	0	0	0	0	0	
69022340.78026	-3.48984122599744	-158.706904778549	0	0	0	0	0	0	
70022674.2247415	-3.51117941605128	-161.819343201058	0	0	0	0	0	0	
71023007.669223	-3.52331753177411	-164.998851752905	0	0	0	0	0	0	
72023341.1137045	-3.53993318930939	-168.236559151061	0	0	0	0	0	0	
73023674.558186	-3.55317441272987	-171.606325697	0	0	0	0	0	0	
74024008.0026675	-3.5639789524691	-175.044085631208	0	0	0	0	0	0	
75024341.4471489	-3.57548462967705	-178.576612673426	0	0	0	0	0	0	
76024674.8916304	-3.58607970344373	177.822308849862	0	0	0	0	0	0	
77025008.3361119	-3.59834934374001	174.155280425243	0	0	0	0	0	0	
78025341.7805934	-3.60851668909433	170.462303364442	0	0	0	0	0	0	
79025675.2250749	-3.61983581098246	166.701638924245	0	0	0	0	0	0	
80026008.6695564	-3.62521466380636	162.955845755407	0	0	0	0	0	0	
81026342.1140379	-3.62616382013404	159.150568647524	0	0	0	0	0	0	
82026675.5585194	-3.61789455109695	155.275490289577	0	0	0	0	0	0	
83027009.0030009	-3.61212059460726	151.311375861652	0	0	0	0	0	0	
84027342.4474824	-3.61630688484076	147.265170700069	0	0	0	0	0	0	
85027675.8919639	-3.62604550429845	143.20428348984	0	0	0	0	0	0	
86028009.3364454	-3.64892877400554	139.061540107021	0	0	0	0	0	0	
87028342.7809269	-3.67761688592446	134.90455443556	0	0	0	0	0	0	
88028676.2254083	-3.71923672487384	130.661415595399	0	0	0	0	0	0	
89029009.6698898	-3.77108561361156	126.363818391395	0	0	0	0	0	0	
90029343.1143713	-3.83102570091458	121.963920434515	0	0	0	0	0	0	
91029676.5588528	-3.90847875433085	117.462117007805	0	0	0	0	0	0	
92030010.0033343	-4.00119726631745	112.821303912917	0	0	0	0	0	0	
93030343.4478158	-4.12898979309219	108.055320910451	0	0	0	0	0	0	
94030676.8922973	-4.27455660924356	103.231002520741	0	0	0	0	0	0	
95031010.3367788	-4.44463865513419	98.3624136556417	0	0	0	0	0	0	
96031343.7812603	-4.6228929182617	93.4721022514276	0	0	0	0	0	0	
97031677.2257418	-4.8127229248015	88.5396447467043	0	0	0	0	0	0	
98032010.6702233	-4.99937984306322	83.5972262713456	0	0	0	0	0	0	
99032344.1147048	-5.18659633762717	78.4630043311187	0	0	0	0	0	0	
100032677.559186	-5.37395998307975	73.2802849868682	0	0	0	0	0	0	
101033011.003668	-5.56306806985348	68.0474346532706	0	0	0	0	0	0	
102033344.448149	-5.73497106757002	62.7810436880026	0	0	0	0	0	0	
103033677.892631	-5.88024660645952	57.3133847886096	0	0	0	0	0	0	
104034011.337112	-6.038025432169	51.6227487905396	0	0	0	0	0	0	
105034344.781594	-6.20435593934568	45.950434723776	0	0	0	0	0	0	
106034678.226075	-6.35172176191679	40.2779920054443	0	0	0	0	0	0	
107035011.670557	-6.48991019582822	34.4637028131945	0	0	0	0	0	0	
108035345.115038	-6.6371373080986	28.6155639274036	0	0	0	0	0	0	
109035678.55952	-6.77655985800595	22.8239419830282	0	0	0	0	0	0	
110036012.004001	-6.91948368752502	17.0090756495556	0	0	0	0	0	0	
111036345.448483	-7.08413801018286	11.1616090291406	0	0	0	0	0	0	
112036678.892964	-7.25588664852703	5.47036524825116	0	0	0	0	0	0	
113037012.337446	-7.43307501328902	-0.0642025383789992	0	0	0	0	0	0	
114037345.781927	-7.6070082015837	-5.45495514100634	0	0	0	0	0	0	
115037679.226409	-7.7666086318155	-10.8034433109622	0	0	0	0	0	0	
116038012.67089	-7.90802516790209	-16.1596968848763	0	0	0	0	0	0	
117038346.115372	-8.07231029129928	-21.5227420379731	0	0	0	0	0	0	
118038679.559853	-8.22715663115347	-26.8346845646761	0	0	0	0	0	0	
119039013.004335	-8.38160807161261	-32.1985913630009	0	0	0	0	0	0	
120039346.448816	-8.54107520382945	-37.3941104319989	0	0	0	0	0	0	
121039679.893298	-8.65743826545349	-42.6465763012792	0	0	0	0	0	0	
122040013.337779	-8.76842940364964	-48.0094883769951	0	0	0	0	0	0	
123040346.782261	-8.87023058351746	-53.5021939386297	0	0	0	0	0	0	
124040680.226742	-8.96812785881789	-58.7637302774247	0	0	0	0	0	0	
125041013.671224	-9.03659249300937	-64.0465362115981	0	0	0	0	0	0	
126041347.115705	-9.07563146362054	-69.3535899941672	0	0	0	0	0	0	
127041680.560187	-9.12048060356119	-74.7636781202364	0	0	0	0	0	0	
128042014.004668	-9.15493474339577	-79.9323307545262	0	0	0	0	0	0	
129042347.44915	-9.16983440411555	-84.9922704959724	0	0	0	0	0	0	
130042680.893631	-9.17228232745877	-89.9180305260908	0	0	0	0	0	0	
131043014.338113	-9.16715306397375	-94.6694500768772	0	0	0	0	0	0	
132043347.782594	-9.14586337451159	-99.3157921704986	0	0	0	0	0	0	
133043681.227075	-9.12867063021131	-103.665573870143	0	0	0	0	0	0	
134044014.671557	-9.0890762722825	-107.855146862767	0	0	0	0	0	0	
135044348.116038	-9.04207348084804	-111.823128146131	0	0	0	0	0	0	
136044681.56052	-8.97271571070784	-115.625271758517	0	0	0	0	0	0	
137045015.005001	-8.88745996807632	-119.521173575641	0	0	0	0	0	0	
138045348.449483	-8.84852135272609	-123.40203397328	0	0	0	0	0	0	
139045681.893964	-8.80983212228822	-126.993822595629	0	0	0	0	0	0	
140046015.338446	-8.77621294151803	-130.496000882735	0	0	0	0	0	0	
141046348.782927	-8.73797240346632	-133.90911991201	0	0	0	0	0	0	
142046682.227409	-8.7163849551232	-137.325176765909	0	0	0	0	0	0	
143047015.67189	-8.69621905688145	-140.687999429264	0	0	0	0	0	0	
144047349.116372	-8.68402081680393	-143.99415206481	0	0	0	0	0	0	
145047682.560853	-8.67318944314853	-147.313115578646	0	0	0	0	0	0	
146048016.005335	-8.66210717909698	-150.699142520094	0	0	0	0	0	0	
147048349.449816	-8.67361909232383	-153.987544715868	0	0	0	0	0	0	
148048682.894298	-8.66381456773045	-157.33845538642	0	0	0	0	0	0	
149049016.338779	-8.67945732756262	-160.622683178436	0	0	0	0	0	0	
150049349.783261	-8.68532477883899	-163.75896481828	0	0	0	0	0	0	
151049683.227742	-8.65361388896669	-166.94932400188	0	0	0	0	0	0	
152050016.672224	-8.63891609115149	-170.314055427781	0	0	0	0	0	0	
153050350.116705	-8.61339693041335	-173.552358740861	0	0	0	0	0	0	
154050683.561187	-8.59765461545008	-176.851401470671	0	0	0	0	0	0	
155051017.005668	-8.58551924459587	179.941600433653	0	0	0	0	0	0	
156051350.45015	-8.57738177947708	176.766768035998	0	0	0	0	0	0	
157051683.894631	-8.56115063577914	173.988084477689	0	0	0	0	0	0	
158052017.339113	-8.51356370860083	171.115902579052	0	0	0	0	0	0	
159052350.783594	-8.46092231727318	168.30478928426	0	0	0	0	0	0	
160052684.228076	-8.40587222474704	165.620515647579	0	0	0	0	0	0	
161053017.672557	-8.33641345180166	162.92721674713	0	0	0	0	0	0	
162053351.117039	-8.28023220156753	160.260691558324	0	0	0	0	0	0	
163053684.56152	-8.22830038553313	157.745146673439	0	0	0	0	0	0	
164054018.006002	-8.17599894627526	155.29299651811	0	0	0	0	0	0	
165054351.450483	-8.12037167522088	152.826970035919	0	0	0	0	0	0	
166054684.894965	-8.0936612291181	150.464271183262	0	0	0	0	0	0	
167055018.339446	-8.06048852518201	148.194175289661	0	0	0	0	0	0	
168055351.783928	-8.03061339635767	146.048273929982	0	0	0	0	0	0	
169055685.228409	-7.99527609482763	143.798597806745	0	0	0	0	0	0	
170056018.672891	-7.97855630925371	141.56389201064	0	0	0	0	0	0	
171056352.117372	-7.97847346473124	139.323694371342	0	0	0	0	0	0	
172056685.561854	-8.00070409733909	137.096046381333	0	0	0	0	0	0	
173057019.006335	-8.03093421751594	135.092173145248	0	0	0	0	0	0	
174057352.450817	-8.05054927988642	133.156491619956	0	0	0	0	0	0	
175057685.895298	-8.06140867440551	131.1651097312	0	0	0	0	0	0	
176058019.33978	-8.05081835207996	129.164950526302	0	0	0	0	0	0	
177058352.784261	-8.04876041950628	127.00244388136	0	0	0	0	0	0	
178058686.228743	-8.04279677583936	124.763994164143	0	0	0	0	0	0	
179059019.673224	-8.05625095542999	122.47439998279	0	0	0	0	0	0	
180059353.117706	-8.07525791553921	120.203264081612	0	0	0	0	0	0	
181059686.562187	-8.09033634931112	117.979113185107	0	0	0	0	0	0	
182060020.006669	-8.07893393485494	115.708826876163	0	0	0	0	0	0	
183060353.45115	-8.08792696914143	113.432641347828	0	0	0	0	0	0	
184060686.895632	-8.06823071316615	111.11713590107	0	0	0	0	0	0	
185061020.340113	-8.05187673237176	108.824596347909	0	0	0	0	0	0	
186061353.784595	-8.0309468353421	106.50834822243	0	0	0	0	0	0	
187061687.229076	-8.00723723629011	104.145998076398	0	0	0	0	0	0	
188062020.673558	-7.98105764054597	101.911349639593	0	0	0	0	0	0	
189062354.118039	-7.94209648379546	99.7339937702723	0	0	0	0	0	0	
190062687.562521	-7.88470818379478	97.5444850572886	0	0	0	0	0	0	
191063021.007002	-7.8285419160924	95.2730402918128	0	0	0	0	0	0	
192063354.451484	-7.78409890856303	93.0842758723604	0	0	0	0	0	0	
193063687.895965	-7.73359651302497	90.9472995201918	0	0	0	0	0	0	
194064021.340447	-7.68178441243613	88.8860246292082	0	0	0	0	0	0	
195064354.784928	-7.62505603271571	86.8676125565319	0	0	0	0	0	0	
196064688.229409	-7.57102239745308	84.8398748082598	0	0	0	0	0	0	
197065021.673891	-7.51999996151507	82.8706926805628	0	0	0	0	0	0	
198065355.118372	-7.47574129722765	80.8287351276302	0	0	0	0	0	0	
199065688.562854	-7.44838460192445	78.8680941053843	0	0	0	0	0	0	
200066022.007335	-7.41920538958185	76.9396178448539	0	0	0	0	0	0	
201066355.451817	-7.39418672207774	74.8939408866221	0	0	0	0	0	0	
202066688.896298	-7.40545554671414	72.8650149819577	0	0	0	0	0	0	
203067022.34078	-7.43003320967186	70.9775978773695	0	0	0	0	0	0	
204067355.785261	-7.46029478317606	69.2434389526644	0	0	0	0	0	0	
205067689.229743	-7.46418383948286	67.3874279775522	0	0	0	0	0	0	
206068022.674224	-7.48142972410953	65.5293676914845	0	0	0	0	0	0	
207068356.118706	-7.4976158716373	63.6087545908578	0	0	0	0	0	0	
208068689.563187	-7.52161491971567	61.6583826278906	0	0	0	0	0	0	
209069023.007669	-7.54904667849059	59.5915581694402	0	0	0	0	0	0	
210069356.45215	-7.59331787890429	57.6187408499217	0	0	0	0	0	0	
211069689.896632	-7.63645731882572	55.7133083766902	0	0	0	0	0	0	
212070023.341113	-7.6601198007987	53.8030747590096	0	0	0	0	0	0	
213070356.785595	-7.67053556944798	51.8224133379497	0	0	0	0	0	0	
214070690.230076	-7.67564929051224	49.7560982562487	0	0	0	0	0	0	
215071023.674558	-7.6848693053738	47.5902082121941	0	0	0	0	0	0	
216071357.119039	-7.69962455804958	45.4360667685555	0	0	0	0	0	0	
217071690.563521	-7.71645873735269	43.3209582215028	0	0	0	0	0	0	
218072024.008002	-7.72317464739711	41.2022474155422	0	0	0	0	0	0	
219072357.452484	-7.74298304143609	39.1294790669106	0	0	0	0	0	0	
220072690.896965	-7.74028425214864	37.1901455611888	0	0	0	0	0	0	
221073024.341447	-7.72153458069237	35.2041150882399	0	0	0	0	0	0	
222073357.785928	-7.69833737212017	33.1148880831283	0	0	0	0	0	0	
223073691.23041	-7.69660230582708	31.1005639800054	0	0	0	0	0	0	
224074024.674891	-7.6747839945947	29.1541639762964	0	0	0	0	0	0	
225074358.119373	-7.67594626536005	27.2364431766839	0	0	0	0	0	0	
226074691.563854	-7.66351336048409	25.5256786969757	0	0	0	0	0	0	
227075025.008336	-7.62766371779892	23.8115668772503	0	0	0	0	0	0	
228075358.452817	-7.59670204684475	21.9468346038789	0	0	0	0	0	0	
229075691.897299	-7.57879700261302	20.1380210869129	0	0	0	0	0	0	
230076025.34178	-7.56432470425675	18.3616819705082	0	0	0	0	0	0	
231076358.786262	-7.55822228833312	16.6383424267999	0	0	0	0	0	0	
232076692.230743	-7.55522179115783	14.8801711381999	0	0	0	0	0	0	
233077025.675225	-7.56324517980279	13.1264699578911	0	0	0	0	0	0	
234077359.119706	-7.57835428367633	11.3874753851859	0	0	0	0	0	0	
235077692.564188	-7.60712699822735	9.67651046519529	0	0	0	0	0	0	
236078026.008669	-7.6339025686833	8.02741879313192	0	0	0	0	0	0	
237078359.453151	-7.64348170728625	6.30553038406662	0	0	0	0	0	0	
238078692.897632	-7.67718378068093	4.43289484438244	0	0	0	0	0	0	
239079026.342114	-7.73707889906813	2.66475903562149	0	0	0	0	0	0	
240079359.786595	-7.77654102419491	1.043927028614	0	0	0	0	0	0	
241079693.231077	-7.79157078990246	-0.691363081018202	0	0	0	0	0	0	
242080026.675558	-7.81415343110997	-2.57958322571848	0	0	0	0	0	0	
243080360.12004	-7.82891814454265	-4.55232075873522	0	0	0	0	0	0	
244080693.564521	-7.86813821364465	-6.58982375578449	0	0	0	0	0	0	
245081027.009003	-7.89650019838116	-8.54665774327426	0	0	0	0	0	0	
246081360.453484	-7.90926542214906	-10.5308362239209	0	0	0	0	0	0	
247081693.897966	-7.93159958320846	-12.6984587643449	0	0	0	0	0	0	
248082027.342447	-7.96381635022879	-14.8108854416995	0	0	0	0	0	0	
249082360.786929	-8.00900087005783	-16.7562904406126	0	0	0	0	0	0	
250082694.23141	-8.00130230447907	-18.5840044066339	0	0	0	0	0	0	
251083027.675892	-7.97223141892151	-20.7238552568089	0	0	0	0	0	0	
252083361.120373	-7.96920659670634	-22.8683381340431	0	0	0	0	0	0	
253083694.564855	-7.97678863779563	-24.8934146825918	0	0	0	0	0	0	
254084028.009336	-7.96137456783803	-26.7895799360467	0	0	0	0	0	0	
255084361.453818	-7.93403510028568	-28.7615888572148	0	0	0	0	0	0	
256084694.898299	-7.90548374143961	-30.7282887147195	0	0	0	0	0	0	
257085028.342781	-7.87949932264944	-32.6940303419712	0	0	0	0	0	0	
258085361.787262	-7.8635705108208	-34.7175934760765	0	0	0	0	0	0	
259085695.231743	-7.87341284663367	-36.6664364088569	0	0	0	0	0	0	
260086028.676225	-7.88251907009392	-38.350717019905	0	0	0	0	0	0	
261086362.120706	-7.8772006152932	-40.0256858118573	0	0	0	0	0	0	
262086695.565188	-7.86021564457318	-41.6448456906632	0	0	0	0	0	0	
263087029.009669	-7.83931260136964	-43.4622285111729	0	0	0	0	0	0	
264087362.454151	-7.85002368878761	-45.280007728304	0	0	0	0	0	0	
265087695.898632	-7.87376293729534	-47.0086226450761	0	0	0	0	0	0	
266088029.343114	-7.90182102074899	-48.6614216937448	0	0	0	0	0	0	
267088362.787595	-7.91666342808342	-50.3827402778332	0	0	0	0	0	0	
268088696.232077	-7.94358672441868	-52.193854556661	0	0	0	0	0	0	
269089029.676558	-7.98915990681895	-54.0843202527727	0	0	0	0	0	0	
270089363.12104	-8.06335645842301	-55.8645785376714	0	0	0	0	0	0	
271089696.565521	-8.1344526458455	-57.4269574315976	0	0	0	0	0	0	
272090030.010003	-8.1515993434488	-59.1289499574239	0	0	0	0	0	0	
273090363.454484	-8.187360532028	-61.0409014045981	0	0	0	0	0	0	
274090696.898966	-8.23736043152797	-63.0130211464511	0	0	0	0	0	0	
275091030.343447	-8.29560400070955	-65.0094938306631	0	0	0	0	0	0	
276091363.787929	-8.36024282929646	-66.9385548790026	0	0	0	0	0	0	
277091697.23241	-8.41944224128925	-68.8734528685406	0	0	0	0	0	0	
278092030.676892	-8.46908843095962	-70.8141639691699	0	0	0	0	0	0	
279092364.121373	-8.50839243555009	-72.8012990268797	0	0	0	0	0	0	
280092697.565855	-8.54773785864231	-74.883019559649	0	0	0	0	0	0	
281093031.010336	-8.59270797018724	-76.8961414578903	0	0	0	0	0	0	
282093364.454818	-8.63258759907772	-78.8252149462856	0	0	0	0	0	0	
283093697.899299	-8.64449907422119	-80.7502218510167	0	0	0	0	0	0	
284094031.343781	-8.63693854122309	-82.7280757851469	0	0	0	0	0	0	
285094364.788262	-8.64935818356905	-84.7930244270933	0	0	0	0	0	0	
286094698.232744	-8.65770063231761	-86.6537573928648	0	0	0	0	0	0	
287095031.677225	-8.63219787038508	-88.5696138731829	0	0	0	0	0	0	
288095365.121707	-8.62528191204794	-90.6230638784007	0	0	0	0	0	0	
289095698.566188	-8.63571769160619	-92.4953112338113	0	0	0	0	0	0	
290096032.01067	-8.63366142632255	-94.2661469245163	0	0	0	0	0	0	
291096365.455151	-8.61838503071017	-96.026688045521	0	0	0	0	0	0	
292096698.899633	-8.60599230908046	-97.8454419536646	0	0	0	0	0	0	
293097032.344114	-8.61139714863639	-99.6608063656371	0	0	0	0	0	0	
294097365.788596	-8.62772188030834	-101.247853392378	0	0	0	0	0	0	
295097699.233077	-8.63468001071463	-102.905502193876	0	0	0	0	0	0	
296098032.677559	-8.65288641637931	-104.440978985808	0	0	0	0	0	0	
297098366.12204	-8.6541245523962	-105.940031232679	0	0	0	0	0	0	
